Time [s],Channel 1,Channel 2
0.000000000,1,1
2.443796800,1,0
2.443805500,1,1
2.443822900,1,0
2.443840200,1,1
2.443848900,1,0
2.443857600,1,1
2.443866300,1,0
2.443875000,1,1
2.443883700,1,0
2.443961900,1,1
2.482580000,0,1
2.482597400,1,1
2.482614800,0,1
2.482623500,1,1
2.482632200,0,1
2.482640800,1,1
2.482649500,0,1
2.482658200,1,1
2.482666900,0,1
2.482710300,1,1
2.482719000,0,1
2.482745100,1,1
2.482753800,0,1
2.482779800,1,1
2.482823300,0,1
2.482832000,1,1
2.482840700,0,1
2.482849300,1,1
2.482858000,0,1
2.482884100,1,1
2.482927500,0,1
2.482953600,1,1
2.483014400,0,1
2.483023100,1,1
2.483040500,0,1
2.483049200,1,1
2.483075200,0,1
2.483092600,1,1
2.483101300,0,1
2.483110000,1,1
2.483118700,0,1
2.483136000,1,1
2.483144700,0,1
2.483162100,1,1
2.483188200,0,1
2.483196800,1,1
2.483205500,0,1
2.483214200,1,1
2.483222900,0,1
2.483231600,1,1
2.483249000,0,1
2.483266300,1,1
2.483275000,0,1
2.483283700,1,1
2.483301100,0,1
2.483327200,1,1
2.483335900,0,1
2.483353200,1,1
2.483361900,0,1
2.483370600,1,1
2.483379300,0,1
2.483388000,1,1
2.483405400,0,1
2.483431400,1,1
2.483448800,0,1
2.483457500,1,1
2.483474900,0,1
2.483483500,1,1
2.483500900,0,1
2.483518300,1,1
2.483535700,0,1
2.483544300,1,1
2.483622500,0,1
2.483631200,1,1
2.483639900,0,1
2.483657300,1,1
2.483674700,0,1
2.483692000,1,1
2.483709400,0,1
2.483718100,1,1
2.483726800,0,1
2.483735500,1,1
2.483752900,0,1
2.483787600,1,1
2.483796300,0,1
2.483805000,1,1
2.483822400,0,1
2.483831000,1,1
2.483848400,0,1
2.483857100,1,1
2.483883200,0,1
2.483909200,1,1
2.483917900,0,1
2.483952700,1,1
2.483970100,0,1
2.483987400,1,1
2.483996100,0,1
2.484022200,1,1
2.484030900,0,1
2.484048200,1,1
2.484056900,0,1
2.484065600,1,1
2.484074300,0,1
2.484083000,1,1
2.484100400,0,1
2.484109000,1,1
2.484126400,0,1
2.484135100,1,1
2.484663600,1,0
2.484681000,1,1
2.484698300,1,0
2.484707000,1,1
2.484715700,1,0
2.484724400,1,1
2.484733100,1,0
2.484741800,1,1
2.484750500,1,0
2.484793900,1,1
2.484802600,1,0
2.484828600,1,1
2.484837300,1,0
2.484863400,1,1
2.484872100,1,0
2.484915500,1,1
2.484924200,1,0
2.484932900,1,1
2.484959000,1,0
2.484976300,1,1
2.484993700,1,0
2.485002400,1,1
2.485011100,1,0
2.485054500,1,1
2.485063200,1,0
2.485071900,1,1
2.485080600,1,0
2.485089300,1,1
2.485098000,1,0
2.485106600,1,1
2.485115300,1,0
2.485132700,1,1
2.485158800,1,0
2.485167500,1,1
2.485184800,1,0
2.485193500,1,1
2.485210900,1,0
2.485219600,1,1
2.485237000,1,0
2.485254300,1,1
2.485271700,1,0
2.485289100,1,1
2.485297800,1,0
2.485332500,1,1
2.485341200,1,0
2.485349900,1,1
2.485358600,1,0
2.485367300,1,1
2.485376000,1,0
2.485393300,1,1
2.485419400,1,0
2.485428100,1,1
2.485445500,1,0
2.485471500,1,1
2.485488900,1,0
2.485506300,1,1
2.485515000,1,0
2.485523600,1,1
2.485532300,1,0
2.485541000,1,1
2.485567100,1,0
2.485575800,1,1
2.485584500,1,0
2.485593200,1,1
2.485601800,1,0
2.485610500,1,1
2.485619200,1,0
2.485636600,1,1
2.485654000,1,0
2.485697400,1,1
2.485706100,1,0
2.485714800,1,1
2.485732200,1,0
2.485740800,1,1
2.485749500,1,0
2.485758200,1,1
2.485766900,1,0
2.485784300,1,1
2.485793000,1,0
2.485845100,1,1
2.485853800,1,0
2.485871200,1,1
2.485879800,1,0
2.485897200,1,1
2.485905900,1,0
2.485923300,1,1
2.485932000,1,0
2.485958000,1,1
2.485966700,1,0
2.485975400,1,1
2.485992800,1,0
2.486010200,1,1
2.486018900,1,0
2.486036200,1,1
2.486053600,1,0
2.486062300,1,1
2.486079700,1,0
2.486123100,1,1
2.486140500,1,0
2.486149200,1,1
2.486157900,1,0
2.486175200,1,1
2.486183900,1,0
2.486210000,1,1
2.491230200,0,1
2.491256200,1,1
2.491264900,0,1
2.491273600,1,1
2.491282300,0,1
2.491291000,1,1
2.491299700,0,1
2.491308400,1,1
2.491317100,0,1
2.491325700,1,1
2.491334400,0,1
2.491395200,1,1
2.491403900,0,1
2.491412600,1,1
2.491421300,0,1
2.491482100,1,1
2.491496300,1,0
2.491505000,1,1
2.491531100,1,0
2.491539700,1,1
2.491548400,1,0
2.491557100,1,1
2.491565800,1,0
2.491574500,1,1
2.491583200,1,0
2.491591900,1,1
2.491600600,1,0
2.491617900,1,1
2.491644000,1,0
2.491661400,1,1
2.491670100,1,0
2.491678700,1,1
2.491696100,1,0
2.491713500,1,1
2.491730900,1,0
2.491748200,1,1
2.491756900,1,0
2.491835100,1,1
2.491843800,1,0
2.491922000,1,1
2.491930700,1,0
2.492008900,1,1
2.492017600,1,0
2.492095700,1,1
2.492104400,1,0
2.492182600,1,1
2.492191300,1,0
2.492269500,1,1
2.492278200,1,0
2.492356400,1,1
2.492365100,1,0
2.492443200,1,1
2.492451900,1,0
2.492530100,1,1
2.492538800,1,0
2.492617000,1,1
2.492625700,1,0
2.492703900,1,1
2.492712600,1,0
2.492790800,1,1
2.492799500,1,0
2.492877600,1,1
2.492886300,1,0
2.492964500,1,1
2.492973200,1,0
2.493051400,1,1
2.493060100,1,0
2.493138300,1,1
2.493147000,1,0
2.493225100,1,1
2.493233800,1,0
2.493312000,1,1
2.493320700,1,0
2.493398900,1,1
2.493407600,1,0
2.493485800,1,1
2.493494500,1,0
2.493572600,1,1
2.493581300,1,0
2.493659500,1,1
2.493668200,1,0
2.493746400,1,1
2.493755100,1,0
2.493833300,1,1
2.493842000,1,0
2.493920100,1,1
2.493928800,1,0
2.494007000,1,1
2.494015700,1,0
2.494093900,1,1
2.494102600,1,0
2.494180800,1,1
2.494189500,1,0
2.494267600,1,1
2.494276300,1,0
2.494354500,1,1
2.494363200,1,0
2.494441400,1,1
2.494450100,1,0
2.494528300,1,1
2.494537000,1,0
2.494615100,1,1
2.494623800,1,0
2.494702000,1,1
2.494710700,1,0
2.494788900,1,1
2.494797600,1,0
2.494875800,1,1
2.494884500,1,0
2.494962600,1,1
2.494971300,1,0
2.495049500,1,1
2.495058200,1,0
2.495136400,1,1
2.495145100,1,0
2.495223300,1,1
2.495232000,1,0
2.495310100,1,1
2.495318800,1,0
2.495397000,1,1
2.495405700,1,0
2.495483900,1,1
2.495492600,1,0
2.495570800,1,1
2.495579500,1,0
2.495657600,1,1
2.495666300,1,0
2.495744500,1,1
2.495753200,1,0
2.495831400,1,1
2.495840100,1,0
2.495918300,1,1
2.495927000,1,0
2.496005100,1,1
2.496013800,1,0
2.496092000,1,1
2.496100700,1,0
2.496178900,1,1
2.496187600,1,0
2.496265800,1,1
2.496274500,1,0
2.496352600,1,1
2.496361300,1,0
2.496439500,1,1
2.496448200,1,0
2.496526400,1,1
2.496535100,1,0
2.496613300,1,1
7.554490600,1,0
7.554499300,1,1
7.554516600,1,0
7.554534000,1,1
7.554542700,1,0
7.554551400,1,1
7.554560100,1,0
7.554568800,1,1
7.554577500,1,0
7.554655600,1,1
7.554673200,0,1
7.554690600,1,1
7.554708000,0,1
7.554716600,1,1
7.554725300,0,1
7.554734000,1,1
7.554742700,0,1
7.554751400,1,1
7.554760100,0,1
7.554803500,1,1
7.554812200,0,1
7.554838300,1,1
7.554847000,0,1
7.554855600,1,1
7.554864300,0,1
7.554890400,1,1
7.554899100,0,1
7.554916500,1,1
7.554933800,0,1
7.555012000,1,1
7.555020700,0,1
7.555038100,1,1
7.555046800,0,1
7.555098900,1,1
7.555107600,0,1
7.555116300,1,1
7.555142300,0,1
7.555151000,1,1
7.555177100,0,1
7.555185800,1,1
7.555194500,0,1
7.555211800,1,1
7.555220500,0,1
7.555229200,1,1
7.555237900,0,1
7.555264000,1,1
7.555281300,0,1
7.555290000,1,1
7.555298700,0,1
7.555316100,1,1
7.555342200,0,1
7.555359500,1,1
7.555368200,0,1
7.555376900,1,1
7.555385600,0,1
7.555394300,1,1
7.555420300,0,1
7.555429000,1,1
7.555437700,0,1
7.555446400,1,1
7.555455100,0,1
7.555463800,1,1
7.555472500,0,1
7.555481100,1,1
7.555489800,0,1
7.555498500,1,1
7.555515900,0,1
7.555533300,1,1
7.555542000,0,1
7.555550600,1,1
7.555559300,0,1
7.555602800,1,1
7.555611500,0,1
7.555620100,1,1
7.555628800,0,1
7.555681000,1,1
7.555689700,0,1
7.555698300,1,1
7.555715700,0,1
7.555733100,1,1
7.555759200,0,1
7.555767800,1,1
7.555776500,0,1
7.555785200,1,1
7.555802600,0,1
7.555811300,1,1
7.555828700,0,1
7.555837300,1,1
7.555889500,0,1
7.555924200,1,1
7.555941600,0,1
7.555950300,1,1
7.555976300,0,1
7.555985000,1,1
7.555993700,0,1
7.556002400,1,1
7.556011100,0,1
7.556019800,1,1
7.556037200,0,1
7.556054500,1,1
7.556063200,0,1
7.556080600,1,1
7.556098000,0,1
7.556106600,1,1
7.556115300,0,1
7.556141400,1,1
7.556150100,0,1
7.556158800,1,1
7.556167500,0,1
7.556176100,1,1
7.556184800,0,1
7.556193500,1,1
7.556202200,0,1
7.556210900,1,1
7.556219600,0,1
7.556228300,1,1
7.556756900,1,0
7.556774300,1,1
7.556791700,1,0
7.556800300,1,1
7.556809000,1,0
7.556817700,1,1
7.556826400,1,0
7.556835100,1,1
7.556843800,1,0
7.556887200,1,1
7.556895900,1,0
7.556922000,1,1
7.556930700,1,0
7.556939300,1,1
7.556948000,1,0
7.556956700,1,1
7.556965400,1,0
7.556974100,1,1
7.556991500,1,0
7.557008800,1,1
7.557017500,1,0
7.557026200,1,1
7.557043600,1,0
7.557069600,1,1
7.557078300,1,0
7.557095700,1,1
7.557104400,1,0
7.557113100,1,1
7.557121800,1,0
7.557139100,1,1
7.557156500,1,0
7.557182600,1,1
7.557191300,1,0
7.557208600,1,1
7.557217300,1,0
7.557226000,1,1
7.557234700,1,0
7.557243400,1,1
7.557260800,1,0
7.557269500,1,1
7.557278200,1,0
7.557286800,1,1
7.557304200,1,0
7.557321600,1,1
7.557330300,1,0
7.557347700,1,1
7.557365000,1,0
7.557382400,1,1
7.557408500,1,0
7.557417200,1,1
7.557451900,1,0
7.557460600,1,1
7.557469300,1,0
7.557495300,1,1
7.557504000,1,0
7.557530100,1,1
7.557538800,1,0
7.557547500,1,1
7.557564900,1,0
7.557582200,1,1
7.557599600,1,0
7.557608300,1,1
7.557625700,1,0
7.557651700,1,1
7.557660400,1,0
7.557669100,1,1
7.557677800,1,0
7.557686500,1,1
7.557695200,1,0
7.557703800,1,1
7.557712500,1,0
7.557721200,1,1
7.557729900,1,0
7.557747300,1,1
7.557756000,1,0
7.557773300,1,1
7.557799400,1,0
7.557808100,1,1
7.557816800,1,0
7.557825500,1,1
7.557834200,1,0
7.557851500,1,1
7.557886300,1,0
7.557895000,1,1
7.557921000,1,0
7.557929700,1,1
7.557938400,1,0
7.557964500,1,1
7.557973200,1,0
7.557990500,1,1
7.558007900,1,0
7.558025300,1,1
7.558042700,1,0
7.558051300,1,1
7.558060000,1,0
7.558068700,1,1
7.558077400,1,0
7.558086100,1,1
7.558112200,1,0
7.558120800,1,1
7.558146900,1,0
7.558173000,1,1
7.558190400,1,0
7.558199000,1,1
7.558233800,1,0
7.558242500,1,1
7.558268500,1,0
7.558277200,1,1
7.563323900,0,1
7.563349900,1,1
7.563358600,0,1
7.563367300,1,1
7.563376000,0,1
7.563384700,1,1
7.563393400,0,1
7.563402000,1,1
7.563410700,0,1
7.563419400,1,1
7.563428100,0,1
7.563488900,1,1
7.563497600,0,1
7.563506300,1,1
7.563515000,0,1
7.563575800,1,1
7.563590200,1,0
7.563598900,1,1
7.563624900,1,0
7.563633600,1,1
7.563642300,1,0
7.563651000,1,1
7.563659700,1,0
7.563668400,1,1
7.563677100,1,0
7.563685700,1,1
7.563694400,1,0
7.563711800,1,1
7.563737900,1,0
7.563755200,1,1
7.563763900,1,0
7.563772600,1,1
7.563790000,1,0
7.563807400,1,1
7.563824800,1,0
7.563842100,1,1
7.563850800,1,0
7.563929000,1,1
7.563937700,1,0
7.564015900,1,1
7.564024600,1,0
7.564102700,1,1
7.564111400,1,0
7.564189600,1,1
7.564198300,1,0
7.564276500,1,1
7.564285200,1,0
7.564363400,1,1
7.564372100,1,0
7.564450300,1,1
7.564459000,1,0
7.564537100,1,1
7.564545800,1,0
7.564624000,1,1
7.564632700,1,0
7.564710900,1,1
7.564719600,1,0
7.564797800,1,1
7.564806500,1,0
7.564884600,1,1
7.564893300,1,0
7.564971500,1,1
7.564980200,1,0
7.565058400,1,1
7.565067100,1,0
7.565145300,1,1
7.565154000,1,0
7.565232100,1,1
7.565240800,1,0
7.565319000,1,1
7.565327700,1,0
7.565405900,1,1
7.565414600,1,0
7.565492800,1,1
7.565501500,1,0
7.565579600,1,1
7.565588300,1,0
7.565666500,1,1
7.565675200,1,0
7.565753400,1,1
7.565762100,1,0
7.565840300,1,1
7.565849000,1,0
7.565927100,1,1
7.565935800,1,0
7.566014000,1,1
7.566022700,1,0
7.566100900,1,1
7.566109600,1,0
7.566187800,1,1
7.566196500,1,0
7.566274600,1,1
7.566283300,1,0
7.566361500,1,1
7.566370200,1,0
7.566448400,1,1
7.566457100,1,0
7.566535300,1,1
7.566544000,1,0
7.566622100,1,1
7.566630800,1,0
7.566709000,1,1
7.566717700,1,0
7.566795900,1,1
7.566804600,1,0
7.566882800,1,1
7.566891500,1,0
7.566969600,1,1
7.566978300,1,0
7.567056500,1,1
7.567065200,1,0
7.567143400,1,1
7.567152100,1,0
7.567230300,1,1
7.567239000,1,0
7.567317100,1,1
7.567325800,1,0
7.567404000,1,1
7.567412700,1,0
7.567490900,1,1
7.567499600,1,0
7.567577800,1,1
7.567586500,1,0
7.567664600,1,1
7.567673300,1,0
7.567751500,1,1
7.567760200,1,0
7.567838400,1,1
7.567847100,1,0
7.567925300,1,1
7.567934000,1,0
7.568012100,1,1
7.568020800,1,0
7.568099000,1,1
7.568107700,1,0
7.568185900,1,1
7.568194600,1,0
7.568272800,1,1
7.568281500,1,0
7.568359600,1,1
7.568368300,1,0
7.568446500,1,1
7.568455200,1,0
7.568533400,1,1
7.568542100,1,0
7.568620300,1,1
7.568629000,1,0
7.568707200,1,1
12.674388100,1,0
12.674396800,1,1
12.674414200,1,0
12.674431500,1,1
12.674440200,1,0
12.674448900,1,1
12.674457600,1,0
12.674466300,1,1
12.674475000,1,0
12.674553100,1,1
12.674570800,0,1
12.674588100,1,1
12.674605500,0,1
12.674614200,1,1
12.674622900,0,1
12.674631600,1,1
12.674640300,0,1
12.674648900,1,1
12.674657600,0,1
12.674701100,1,1
12.674709800,0,1
12.674735800,1,1
12.674744500,0,1
12.674753200,1,1
12.674761900,0,1
12.674770600,1,1
12.674788000,0,1
12.674796600,1,1
12.674805300,0,1
12.674822700,1,1
12.674831400,0,1
12.674848800,1,1
12.674874800,0,1
12.674883500,1,1
12.674900900,0,1
12.674909600,1,1
12.674918300,0,1
12.674926900,1,1
12.674935600,0,1
12.674953000,1,1
12.674970400,0,1
12.674996400,1,1
12.675005100,0,1
12.675013800,1,1
12.675022500,0,1
12.675039900,1,1
12.675074600,0,1
12.675083300,1,1
12.675092000,0,1
12.675109400,1,1
12.675118100,0,1
12.675126800,1,1
12.675135500,0,1
12.675170200,1,1
12.675178900,0,1
12.675187600,1,1
12.675222300,0,1
12.675231000,1,1
12.675248400,0,1
12.675257100,1,1
12.675265800,0,1
12.675283100,1,1
12.675291800,0,1
12.675300500,1,1
12.675317900,0,1
12.675326600,1,1
12.675335300,0,1
12.675344000,1,1
12.675352600,0,1
12.675361300,1,1
12.675378700,0,1
12.675387400,1,1
12.675396100,0,1
12.675422100,1,1
12.675439500,0,1
12.675448200,1,1
12.675465600,0,1
12.675474300,1,1
12.675483000,0,1
12.675491600,1,1
12.675526400,0,1
12.675535100,1,1
12.675561200,0,1
12.675578500,1,1
12.675587200,0,1
12.675604600,1,1
12.675613300,0,1
12.675630600,1,1
12.675639300,0,1
12.675648000,1,1
12.675674100,0,1
12.675691500,1,1
12.675700200,0,1
12.675708800,1,1
12.675717500,0,1
12.675734900,1,1
12.675743600,0,1
12.675752300,1,1
12.675769700,0,1
12.675778300,1,1
12.675787000,0,1
12.675804400,1,1
12.675821800,0,1
12.675839100,1,1
12.675873900,0,1
12.675908600,1,1
12.675917300,0,1
12.675926000,1,1
12.675934700,0,1
12.675943400,1,1
12.675960800,0,1
12.675995500,1,1
12.676004200,0,1
12.676030300,1,1
12.676047700,0,1
12.676056300,1,1
12.676073700,0,1
12.676082400,1,1
12.676655000,1,0
12.676672300,1,1
12.676689700,1,0
12.676698400,1,1
12.676707100,1,0
12.676715800,1,1
12.676724500,1,0
12.676733200,1,1
12.676741900,1,0
12.676785300,1,1
12.676794000,1,0
12.676820000,1,1
12.676828700,1,0
12.676837400,1,1
12.676846100,1,0
12.676872200,1,1
12.676898200,1,0
12.676906900,1,1
12.676915600,1,0
12.676933000,1,1
12.676950400,1,0
12.676976400,1,1
12.676985100,1,0
12.676993800,1,1
12.677002500,1,0
12.677019800,1,1
12.677054600,1,0
12.677072000,1,1
12.677089400,1,0
12.677106700,1,1
12.677115400,1,0
12.677124100,1,1
12.677141500,1,0
12.677167500,1,1
12.677176200,1,0
12.677184900,1,1
12.677211000,1,0
12.677237000,1,1
12.677263100,1,0
12.677271800,1,1
12.677280500,1,0
12.677289200,1,1
12.677306600,1,0
12.677315200,1,1
12.677332600,1,0
12.677341300,1,1
12.677350000,1,0
12.677358700,1,1
12.677367400,1,0
12.677376000,1,1
12.677402100,1,0
12.677428200,1,1
12.677436900,1,0
12.677471600,1,1
12.677480300,1,0
12.677489000,1,1
12.677497700,1,0
12.677506400,1,1
12.677523700,1,0
12.677532400,1,1
12.677549800,1,0
12.677567200,1,1
12.677575900,1,0
12.677584500,1,1
12.677593200,1,0
12.677601900,1,1
12.677610600,1,0
12.677619300,1,1
12.677628000,1,0
12.677645400,1,1
12.677662700,1,0
12.677671400,1,1
12.677697500,1,0
12.677732200,1,1
12.677740900,1,0
12.677749600,1,1
12.677758300,1,0
12.677775700,1,1
12.677784400,1,0
12.677793000,1,1
12.677801700,1,0
12.677810400,1,1
12.677819100,1,0
12.677827800,1,1
12.677853900,1,0
12.677862500,1,1
12.677871200,1,0
12.677906000,1,1
12.677923400,1,0
12.677940700,1,1
12.677958100,1,0
12.677984200,1,1
12.677992900,1,0
12.678027600,1,1
12.678045000,1,0
12.678079700,1,1
12.678088400,1,0
12.678114500,1,1
12.678131900,1,0
12.678140500,1,1
12.678157900,1,0
12.678175300,1,1
12.678192700,1,0
12.678210000,1,1
12.683222000,0,1
12.683248000,1,1
12.683256700,0,1
12.683265400,1,1
12.683274100,0,1
12.683282800,1,1
12.683291500,0,1
12.683300200,1,1
12.683308800,0,1
12.683317500,1,1
12.683326200,0,1
12.683387000,1,1
12.683395700,0,1
12.683404400,1,1
12.683413100,0,1
12.683473900,1,1
12.683487800,1,0
12.683496400,1,1
12.683522500,1,0
12.683531200,1,1
12.683539900,1,0
12.683548600,1,1
12.683557300,1,0
12.683565900,1,1
12.683574600,1,0
12.683583300,1,1
12.683592000,1,0
12.683609400,1,1
12.683635500,1,0
12.683652800,1,1
12.683661500,1,0
12.683670200,1,1
12.683687600,1,0
12.683704900,1,1
12.683722300,1,0
12.683739700,1,1
12.683748400,1,0
12.683826600,1,1
12.683835300,1,0
12.683913500,1,1
12.683922100,1,0
12.684000300,1,1
12.684009000,1,0
12.684087200,1,1
12.684095900,1,0
12.684174100,1,1
12.684182800,1,0
12.684261000,1,1
12.684269700,1,0
12.684347800,1,1
12.684356500,1,0
12.684434700,1,1
12.684443400,1,0
12.684521600,1,1
12.684530300,1,0
12.684608500,1,1
12.684617200,1,0
12.684695300,1,1
12.684704000,1,0
12.684782200,1,1
12.684790900,1,0
12.684869100,1,1
12.684877800,1,0
12.684956000,1,1
12.684964700,1,0
12.685042800,1,1
12.685051500,1,0
12.685129700,1,1
12.685138400,1,0
12.685216600,1,1
12.685225300,1,0
12.685303500,1,1
12.685312200,1,0
12.685390300,1,1
12.685399000,1,0
12.685477200,1,1
12.685485900,1,0
12.685564100,1,1
12.685572800,1,0
12.685651000,1,1
12.685659700,1,0
12.685737800,1,1
12.685746500,1,0
12.685824700,1,1
12.685833400,1,0
12.685911600,1,1
12.685920300,1,0
12.685998500,1,1
12.686007200,1,0
12.686085300,1,1
12.686094000,1,0
12.686172200,1,1
12.686180900,1,0
12.686259100,1,1
12.686267800,1,0
12.686346000,1,1
12.686354700,1,0
12.686432800,1,1
12.686441500,1,0
12.686519700,1,1
12.686528400,1,0
12.686606600,1,1
12.686615300,1,0
12.686693500,1,1
12.686702200,1,0
12.686780300,1,1
12.686789000,1,0
12.686867200,1,1
12.686875900,1,0
12.686954100,1,1
12.686962800,1,0
12.687041000,1,1
12.687049700,1,0
12.687127800,1,1
12.687136500,1,0
12.687214700,1,1
12.687223400,1,0
12.687301600,1,1
12.687310300,1,0
12.687388500,1,1
12.687397200,1,0
12.687475300,1,1
12.687484000,1,0
12.687562200,1,1
12.687570900,1,0
12.687649100,1,1
12.687657800,1,0
12.687736000,1,1
12.687744700,1,0
12.687822800,1,1
12.687831500,1,0
12.687909700,1,1
12.687918400,1,0
12.687996600,1,1
12.688005300,1,0
12.688083500,1,1
12.688092200,1,0
12.688170300,1,1
12.688179000,1,0
12.688257200,1,1
12.688265900,1,0
12.688344100,1,1
12.688352800,1,0
12.688431000,1,1
12.688439700,1,0
12.688517900,1,1
12.688526500,1,0
12.688604700,1,1
17.788889500,1,0
17.788898100,1,1
17.788915500,1,0
17.788932900,1,1
17.788941600,1,0
17.788950300,1,1
17.788959000,1,0
17.788967600,1,1
17.788976300,1,0
17.789054500,1,1
17.789072100,0,1
17.789089500,1,1
17.789106900,0,1
17.789115500,1,1
17.789124200,0,1
17.789132900,1,1
17.789141600,0,1
17.789150300,1,1
17.789159000,0,1
17.789202400,1,1
17.789211100,0,1
17.789237200,1,1
17.789245900,0,1
17.789280600,1,1
17.789306700,0,1
17.789315300,1,1
17.789332700,0,1
17.789350100,1,1
17.789402200,0,1
17.789410900,1,1
17.789419600,0,1
17.789445700,1,1
17.789463000,0,1
17.789471700,1,1
17.789480400,0,1
17.789497800,1,1
17.789506500,0,1
17.789523800,1,1
17.789558600,0,1
17.789584700,1,1
17.789593400,0,1
17.789619400,1,1
17.789628100,0,1
17.789654200,1,1
17.789680200,0,1
17.789697600,1,1
17.789706300,0,1
17.789723700,1,1
17.789741000,0,1
17.789758400,1,1
17.789767100,0,1
17.789784500,1,1
17.789801900,0,1
17.789819200,1,1
17.789827900,0,1
17.789845300,1,1
17.789854000,0,1
17.789871400,1,1
17.789880000,0,1
17.789906100,1,1
17.789914800,0,1
17.789923500,1,1
17.789940900,0,1
17.789958200,1,1
17.789966900,0,1
17.789975600,1,1
17.789993000,0,1
17.790001700,1,1
17.790010400,0,1
17.790019000,1,1
17.790027700,0,1
17.790045100,1,1
17.790053800,0,1
17.790097200,1,1
17.790114600,0,1
17.790140700,1,1
17.790149400,0,1
17.790192800,1,1
17.790201500,0,1
17.790218900,1,1
17.790244900,0,1
17.790262300,1,1
17.790288400,0,1
17.790297000,1,1
17.790331800,0,1
17.790340500,1,1
17.790349200,0,1
17.790366500,1,1
17.790375200,0,1
17.790392600,1,1
17.790418700,0,1
17.790427400,1,1
17.790444700,0,1
17.790453400,1,1
17.790462100,0,1
17.790488200,1,1
17.790496900,0,1
17.790531600,1,1
17.790549000,0,1
17.790557700,1,1
17.790575100,0,1
17.790592400,1,1
17.790601100,0,1
17.790609800,1,1
17.790618500,0,1
17.790627200,1,1
17.791155900,1,0
17.791173200,1,1
17.791190600,1,0
17.791199300,1,1
17.791208000,1,0
17.791216700,1,1
17.791225400,1,0
17.791234000,1,1
