Time [s],Channel 1,Channel 2
0.000000000,1,1
2.549789900,1,0
2.549824600,1,1
2.549842000,1,0
2.549850700,1,1
2.549859400,1,0
2.549868000,1,1
2.549876700,1,0
2.549920200,1,1
2.549928900,1,0
2.549954900,1,1
2.549963600,1,0
2.549981000,1,1
2.549989700,1,0
2.550007000,1,1
2.550024400,1,0
2.550041800,1,1
2.550050500,1,0
2.550085200,1,1
2.550120000,1,0
2.550128700,1,1
2.550137400,1,0
2.550163400,1,1
2.550172100,1,0
2.550198200,1,1
2.550206900,1,0
2.550215500,1,1
2.550224200,1,0
2.550232900,1,1
2.550241600,1,0
2.550267700,1,1
2.550293700,1,0
2.550302400,1,1
2.550311100,1,0
2.550319800,1,1
2.550337200,1,0
2.550363200,1,1
2.550371900,1,0
2.550389300,1,1
2.550398000,1,0
2.550415400,1,1
2.550424100,1,0
2.550458800,1,1
2.550467500,1,0
2.550476200,1,1
2.550484900,1,0
2.550493600,1,1
2.550502200,1,0
2.550510900,1,1
2.550519600,1,0
2.550528300,1,1
2.550545700,1,0
2.550563100,1,1
2.550571700,1,0
2.550580400,1,1
2.550589100,1,0
2.550606500,1,1
2.550623900,1,0
2.550632600,1,1
2.550641200,1,0
2.550649900,1,1
2.550658600,1,0
2.550702100,1,1
2.550719400,1,0
2.550736800,1,1
2.550745500,1,0
2.550788900,1,1
2.550806300,1,0
2.550823700,1,1
2.550832400,1,0
2.550875800,1,1
2.550893200,1,0
2.550910600,1,1
2.550919300,1,0
2.550962700,1,1
2.550980100,1,0
2.550997400,1,1
2.551006100,1,0
2.551049600,1,1
2.551066900,1,0
2.551084300,1,1
2.551093000,1,0
2.551136400,1,1
2.551153800,1,0
2.551171200,1,1
2.551179900,1,0
2.551223300,1,1
2.551240700,1,0
2.551258100,1,1
2.551266800,1,0
2.551310200,1,1
2.551327600,1,0
2.551344900,1,1
2.557561400,0,1
2.557570100,1,1
2.557578800,0,1
2.557596200,1,1
2.557613500,0,1
2.557622200,1,1
2.557630900,0,1
2.557639600,1,1
2.557648300,0,1
2.557691700,1,1
2.557700400,0,1
2.557726500,1,1
2.557735200,0,1
2.557752500,1,1
2.557778600,0,1
2.557804700,1,1
2.557822000,0,1
2.557830700,1,1
2.557856800,0,1
2.557865500,1,1
2.557874200,0,1
2.557900200,1,1
2.557908900,0,1
2.557935000,1,1
2.557961000,0,1
2.557987100,1,1
2.557995800,0,1
2.558004500,1,1
2.558021900,0,1
2.558047900,1,1
2.558065300,0,1
2.558074000,1,1
2.558082700,0,1
2.558091300,1,1
2.558100000,0,1
2.558126100,1,1
2.558134800,0,1
2.558160800,1,1
2.558169500,0,1
2.558178200,1,1
2.558186900,0,1
2.558195600,1,1
2.558204300,0,1
2.558213000,1,1
2.558221700,0,1
2.558230300,1,1
2.558239000,0,1
2.558247700,1,1
2.558256400,0,1
2.558273800,1,1
2.558282500,0,1
2.558299800,1,1
2.558343300,0,1
2.558412800,1,1
2.558430200,0,1
2.558438800,1,1
2.558447500,0,1
2.558473600,1,1
2.558491000,0,1
2.558508300,1,1
2.558517000,0,1
2.558525700,1,1
2.558543100,0,1
2.558569200,1,1
2.558577900,0,1
2.558586500,1,1
2.558603900,0,1
2.558656000,1,1
2.558690800,0,1
2.558699500,1,1
2.558708200,0,1
2.558725500,1,1
2.558751600,0,1
2.558760300,1,1
2.558777700,0,1
2.558786300,1,1
2.558803700,0,1
2.558821100,1,1
2.558864500,0,1
2.558873200,1,1
2.558881900,0,1
2.558890600,1,1
2.558916700,0,1
2.558925300,1,1
2.558934000,0,1
2.558942700,1,1
2.558951400,0,1
2.558960100,1,1
2.558968800,0,1
2.558986200,1,1
2.558994900,0,1
2.559020900,1,1
2.559038300,0,1
2.559055700,1,1
2.559090400,0,1
2.559099100,1,1
2.559107800,0,1
2.559116500,1,1
2.559891300,1,0
2.559908700,1,1
2.559926000,1,0
2.559934700,1,1
2.559943400,1,0
2.559952100,1,1
2.559960800,1,0
2.559969500,1,1
2.559978200,1,0
2.560030300,1,1
2.560039000,1,0
2.560056300,1,1
2.560065000,1,0
2.560082400,1,1
2.560091100,1,0
2.560125800,1,1
2.560134500,1,0
2.560143200,1,1
2.560151900,1,0
2.560160600,1,1
2.560169300,1,0
2.560186700,1,1
2.560238800,1,0
2.560264800,1,1
2.560282200,1,0
2.560290900,1,1
2.560299600,1,0
2.560308300,1,1
2.560325700,1,0
2.560334300,1,1
2.560369100,1,0
2.560386500,1,1
2.560395200,1,0
2.560403800,1,1
2.560412500,1,0
2.560447300,1,1
2.560464700,1,0
2.560473300,1,1
2.560499400,1,0
2.560516800,1,1
2.560525500,1,0
2.560542800,1,1
2.560568900,1,0
2.560577600,1,1
2.560586300,1,0
2.560595000,1,1
2.560603700,1,0
2.560621000,1,1
2.560629700,1,0
2.560638400,1,1
2.560647100,1,0
2.560664500,1,1
2.560673200,1,0
2.560690500,1,1
2.560716600,1,0
2.560751300,1,1
2.560760000,1,0
2.560777400,1,1
2.560794800,1,0
2.560812200,1,1
2.560829500,1,0
2.560838200,1,1
2.560846900,1,0
2.560855600,1,1
2.560881700,1,0
2.560890300,1,1
2.560899000,1,0
2.560916400,1,1
2.560933800,1,0
2.560942500,1,1
2.560977200,1,0
2.560985900,1,1
2.560994600,1,0
2.561012000,1,1
2.561020700,1,0
2.561029300,1,1
2.561038000,1,0
2.561055400,1,1
2.561064100,1,0
2.561081500,1,1
2.561107500,1,0
2.561116200,1,1
2.561151000,1,0
2.561159700,1,1
2.561168400,1,0
2.561185700,1,1
2.561194400,1,0
2.561203100,1,1
2.561211800,1,0
2.561237800,1,1
2.561246500,1,0
2.561272600,1,1
2.561281300,1,0
2.561342100,1,1
2.561350800,1,0
2.561359500,1,1
2.561368200,1,0
2.561411600,1,1
2.561420300,1,0
2.561429000,1,1
2.561455000,1,0
2.561463700,1,1
2.561472400,1,0
2.561498500,1,1
2.561507200,1,0
2.561515900,1,1
2.561541900,1,0
2.561550600,1,1
2.561559300,1,0
2.561585400,1,1
2.561594000,1,0
2.561602700,1,1
2.561611400,1,0
2.561620100,1,1
2.561628800,1,0
2.561637500,1,1
2.561646200,1,0
2.561654900,1,1
2.561680900,1,0
2.561698300,1,1
2.561715700,1,0
2.561724400,1,1
2.561733100,1,0
2.561741700,1,1
2.561759100,1,0
2.561785200,1,1
2.561802600,1,0
2.561819900,1,1
2.561828600,1,0
2.561846000,1,1
2.561889400,1,0
2.561924200,1,1
2.561932900,1,0
2.561950200,1,1
2.561958900,1,0
2.561967600,1,1
2.561976300,1,0
2.561985000,1,1
2.562011100,1,0
2.562028400,1,1
2.562045800,1,0
2.562054500,1,1
2.562063200,1,0
2.562080500,1,1
2.562089200,1,0
2.562097900,1,1
2.562115300,1,0
2.562141400,1,1
2.562150100,1,0
2.562158700,1,1
2.562167400,1,0
2.562176100,1,1
2.562236900,1,0
2.562254300,1,1
2.562263000,1,0
2.562271700,1,1
2.562280400,1,0
2.562289000,1,1
2.562323800,1,0
2.562341200,1,1
2.562358600,1,0
2.562375900,1,1
2.562384600,1,0
2.562402000,1,1
2.562410700,1,0
2.562462800,1,1
2.562471500,1,0
2.562488900,1,1
2.562497600,1,0
2.562523600,1,1
2.562532300,1,0
2.562549700,1,1
2.562567100,1,0
2.562575700,1,1
2.562584400,1,0
2.562593100,1,1
2.562601800,1,0
2.562645200,1,1
2.562671300,1,0
2.562688700,1,1
2.562732100,1,0
2.562749500,1,1
2.562758200,1,0
2.562766900,1,1
2.562775600,1,0
2.562810300,1,1
2.562819000,1,0
2.562827700,1,1
2.567747600,0,1
2.567773600,1,1
2.567782300,0,1
2.567791000,1,1
2.567799700,0,1
2.567808400,1,1
2.567817100,0,1
2.567825700,1,1
2.567834400,0,1
2.567843100,1,1
2.567851800,0,1
2.567912600,1,1
2.567921300,0,1
2.567930000,1,1
2.567938700,0,1
2.567999500,1,1
2.568014100,1,0
2.568022800,1,1
2.568048900,1,0
2.568057600,1,1
2.568066300,1,0
2.568074900,1,1
2.568083600,1,0
2.568092300,1,1
2.568101000,1,0
2.568109700,1,1
2.568127100,1,0
2.568135800,1,1
2.568144500,1,0
2.568161800,1,1
2.568170500,1,0
2.568179200,1,1
2.568187900,1,0
2.568196600,1,1
2.568214000,1,0
2.568231300,1,1
2.568248700,1,0
2.568266100,1,1
2.568274800,1,0
2.568352900,1,1
2.568361600,1,0
2.568439800,1,1
2.568448500,1,0
2.568526700,1,1
2.568535400,1,0
2.568613600,1,1
2.568622300,1,0
2.568700400,1,1
2.568709100,1,0
2.568787300,1,1
2.568796000,1,0
2.568874200,1,1
2.568882900,1,0
2.568961100,1,1
2.568969800,1,0
2.569047900,1,1
2.569056600,1,0
2.569134800,1,1
2.569143500,1,0
2.569221700,1,1
2.569230400,1,0
2.569308600,1,1
2.569317300,1,0
2.569395400,1,1
2.569404100,1,0
2.569482300,1,1
2.569491000,1,0
2.569569200,1,1
2.569577900,1,0
2.569656100,1,1
2.569664800,1,0
2.569743000,1,1
2.569751600,1,0
2.569829800,1,1
2.569838500,1,0
2.569916700,1,1
2.569925400,1,0
2.570003600,1,1
2.570012300,1,0
2.570090500,1,1
2.570099200,1,0
2.570177300,1,1
2.570186000,1,0
2.570264200,1,1
2.570272900,1,0
2.570351100,1,1
2.570359800,1,0
2.570438000,1,1
2.570446700,1,0
2.570524800,1,1
2.570533500,1,0
2.570611700,1,1
2.570620400,1,0
2.570698600,1,1
2.570707300,1,0
2.570785500,1,1
2.570794200,1,0
2.570872300,1,1
2.570881000,1,0
2.570959200,1,1
2.570967900,1,0
2.571046100,1,1
2.571054800,1,0
2.571133000,1,1
2.571141700,1,0
2.571219800,1,1
2.571228500,1,0
2.571306700,1,1
2.571315400,1,0
2.571393600,1,1
2.571402300,1,0
2.571480500,1,1
2.571489200,1,0
2.571567300,1,1
2.571576000,1,0
2.571654200,1,1
2.571662900,1,0
2.571741100,1,1
2.571749800,1,0
2.571828000,1,1
2.571836700,1,0
2.571914800,1,1
2.571923500,1,0
2.572001700,1,1
2.572010400,1,0
2.572088600,1,1
2.572097300,1,0
2.572175500,1,1
2.572184200,1,0
2.572262300,1,1
2.572271000,1,0
2.572349200,1,1
2.572357900,1,0
2.572436100,1,1
2.572444800,1,0
2.572523000,1,1
2.572531700,1,0
2.572609800,1,1
2.572618500,1,0
2.572696700,1,1
2.572705400,1,0
2.572783600,1,1
2.572792300,1,0
2.572870500,1,1
2.572879200,1,0
2.572957300,1,1
2.572966000,1,0
2.573044200,1,1
2.573052900,1,0
2.573131100,1,1
2.573139800,1,0
2.573218000,1,1
2.573226700,1,0
2.573304800,1,1
2.573313500,1,0
2.573391700,1,1
2.573400400,1,0
2.573478600,1,1
2.573487300,1,0
2.573565500,1,1
2.573574200,1,0
2.573652300,1,1
2.573661000,1,0
2.573739200,1,1
2.573747900,1,0
2.573826100,1,1
2.573834800,1,0
2.573913000,1,1
2.573921700,1,0
2.573999800,1,1
2.574008500,1,0
2.574086700,1,1
2.574095400,1,0
2.574173600,1,1
2.574182300,1,0
2.574260500,1,1
2.574269200,1,0
2.574347300,1,1
2.574356000,1,0
2.574434200,1,1
2.574442900,1,0
2.574521100,1,1
2.574529800,1,0
2.574608000,1,1
2.574616700,1,0
2.574694800,1,1
7.667450700,1,0
7.667485500,1,1
7.667502900,1,0
7.667511500,1,1
7.667520200,1,0
7.667528900,1,1
7.667537600,1,0
7.667581000,1,1
7.667589700,1,0
7.667615800,1,1
7.667624500,1,0
7.667641900,1,1
7.667650600,1,0
7.667667900,1,1
7.667685300,1,0
7.667702700,1,1
7.667711400,1,0
7.667746100,1,1
7.667780900,1,0
7.667789500,1,1
7.667798200,1,0
7.667824300,1,1
7.667833000,1,0
7.667859000,1,1
7.667867700,1,0
7.667876400,1,1
7.667885100,1,0
7.667893800,1,1
7.667902500,1,0
7.667928500,1,1
7.667954600,1,0
7.667963300,1,1
7.667972000,1,0
7.667980700,1,1
7.667998100,1,0
7.668024100,1,1
7.668032800,1,0
7.668050200,1,1
7.668058900,1,0
7.668076200,1,1
7.668084900,1,0
7.668119700,1,1
7.668128400,1,0
7.668137000,1,1
7.668145700,1,0
7.668154400,1,1
7.668163100,1,0
7.668171800,1,1
7.668180500,1,0
7.668189200,1,1
7.668206600,1,0
7.668223900,1,1
7.668232600,1,0
7.668241300,1,1
7.668250000,1,0
7.668267400,1,1
7.668284700,1,0
7.668293400,1,1
7.668302100,1,0
7.668310800,1,1
7.668319500,1,0
7.668362900,1,1
7.668380300,1,0
7.668397700,1,1
7.668406400,1,0
7.668449800,1,1
7.668467200,1,0
7.668484500,1,1
7.668493200,1,0
7.668536700,1,1
7.668554100,1,0
7.668571400,1,1
7.668580100,1,0
7.668623500,1,1
7.668640900,1,0
7.668658300,1,1
7.668667000,1,0
7.668710400,1,1
7.668727800,1,0
7.668745200,1,1
7.668753900,1,0
7.668797300,1,1
7.668814700,1,0
7.668832000,1,1
7.668840700,1,0
7.668884200,1,1
7.668901600,1,0
7.668918900,1,1
7.668927600,1,0
7.668971000,1,1
7.668988400,1,0
7.669005800,1,1
7.675224100,0,1
7.675232800,1,1
7.675241500,0,1
7.675258900,1,1
7.675276200,0,1
7.675284900,1,1
7.675293600,0,1
7.675302300,1,1
7.675311000,0,1
7.675354400,1,1
7.675363100,0,1
7.675389200,1,1
7.675397900,0,1
7.675406500,1,1
7.675423900,0,1
7.675432600,1,1
7.675441300,0,1
7.675450000,1,1
7.675458700,0,1
7.675476100,1,1
7.675484700,0,1
7.675502100,1,1
7.675545600,0,1
7.675562900,1,1
7.675571600,0,1
7.675589000,1,1
7.675606400,0,1
7.675615100,1,1
7.675658500,0,1
7.675667200,1,1
7.675728000,0,1
7.675736700,1,1
7.675745400,0,1
7.675762700,1,1
7.675771400,0,1
7.675780100,1,1
7.675788800,0,1
7.675806200,1,1
7.675832300,0,1
7.675840900,1,1
7.675875700,0,1
7.675884400,1,1
7.675901800,0,1
7.675910400,1,1
7.675919100,0,1
7.675936500,1,1
7.675953900,0,1
7.675997300,1,1
7.676006000,0,1
7.676032100,1,1
7.676049400,0,1
7.676058100,1,1
7.676092900,0,1
7.676101600,1,1
7.676110300,0,1
7.676118900,1,1
7.676127600,0,1
7.676153700,1,1
7.676179800,0,1
7.676197100,1,1
7.676223200,0,1
7.676231900,1,1
7.676240600,0,1
7.676257900,1,1
7.676266600,0,1
7.676275300,1,1
7.676301400,0,1
7.676310100,1,1
7.676327400,0,1
7.676336100,1,1
7.676353500,0,1
7.676362200,1,1
7.676370900,0,1
7.676379600,1,1
7.676388300,0,1
7.676396900,1,1
7.676414300,0,1
7.676431700,1,1
7.676440400,0,1
7.676466400,1,1
7.676527300,0,1
7.676535900,1,1
7.676553300,0,1
7.676562000,1,1
7.676570700,0,1
7.676579400,1,1
7.676614100,0,1
7.676631500,1,1
7.676648900,0,1
7.676657600,1,1
7.676666300,0,1
7.676683600,1,1
7.676701000,0,1
7.676718400,1,1
7.676727100,0,1
7.676735700,1,1
7.676744400,0,1
7.676753100,1,1
7.676761800,0,1
7.676770500,1,1
7.677553800,1,0
7.677571200,1,1
7.677588600,1,0
7.677597300,1,1
7.677606000,1,0
7.677614600,1,1
7.677623300,1,0
7.677632000,1,1
7.677640700,1,0
7.677692800,1,1
7.677701500,1,0
7.677718900,1,1
7.677727600,1,0
7.677736300,1,1
7.677745000,1,0
7.677788400,1,1
7.677814500,1,0
7.677823100,1,1
7.677831800,1,0
7.677884000,1,1
7.677901300,1,0
7.677910000,1,1
7.677927400,1,0
7.677953500,1,1
7.677962200,1,0
7.677979500,1,1
7.677988200,1,0
7.677996900,1,1
7.678005600,1,0
7.678040300,1,1
7.678049000,1,0
7.678057700,1,1
7.678075100,1,0
7.678083800,1,1
7.678118500,1,0
7.678135900,1,1
7.678162000,1,0
7.678170700,1,1
7.678179300,1,0
7.678188000,1,1
7.678196700,1,0
7.678205400,1,1
7.678214100,1,0
7.678240200,1,1
7.678248800,1,0
7.678257500,1,1
7.678301000,1,0
7.678327000,1,1
7.678335700,1,0
7.678344400,1,1
7.678353100,1,0
7.678361800,1,1
7.678387900,1,0
7.678405200,1,1
7.678422600,1,0
7.678431300,1,1
7.678457400,1,0
7.678474700,1,1
7.678483400,1,0
7.678492100,1,1
7.678509500,1,0
7.678518200,1,1
7.678535500,1,0
7.678544200,1,1
7.678552900,1,0
7.678561600,1,1
7.678570300,1,0
7.678587700,1,1
7.678596400,1,0
7.678613700,1,1
7.678631100,1,0
7.678639800,1,1
7.678657200,1,0
7.678665800,1,1
7.678683200,1,0
7.678691900,1,1
7.678700600,1,0
7.678709300,1,1
7.678718000,1,0
7.678744000,1,1
7.678770100,1,0
7.678778800,1,1
7.678804900,1,0
7.678822200,1,1
7.678830900,1,0
7.678839600,1,1
7.678857000,1,0
7.678865700,1,1
7.678874400,1,0
7.678935200,1,1
7.678943900,1,0
7.678952500,1,1
7.678969900,1,0
7.678978600,1,1
7.678987300,1,0
7.678996000,1,1
7.679013400,1,0
7.679022000,1,1
7.679030700,1,0
7.679108900,1,1
7.679117600,1,0
7.679135000,1,1
7.679152400,1,0
7.679187100,1,1
7.679204500,1,0
7.679230500,1,1
7.679239200,1,0
7.679282700,1,1
7.679291400,1,0
7.679308700,1,1
7.679317400,1,0
7.679369500,1,1
7.679378200,1,0
7.679413000,1,1
7.679421700,1,0
7.679430300,1,1
7.679439000,1,0
7.679456400,1,1
7.679465100,1,0
7.679473800,1,1
7.679499900,1,0
7.679534600,1,1
7.679552000,1,0
7.679560700,1,1
7.679569400,1,0
7.679612800,1,1
7.679638900,1,0
7.679682300,1,1
7.679691000,1,0
7.679699700,1,1
7.679708400,1,0
7.679717000,1,1
7.679725700,1,0
7.679734400,1,1
7.679777900,1,0
7.679803900,1,1
7.679812600,1,0
7.679830000,1,1
7.679882100,1,0
7.679890800,1,1
7.679899500,1,0
7.679916800,1,1
7.679942900,1,0
7.679977700,1,1
7.679986400,1,0
7.680003700,1,1
7.680038500,1,0
7.680055800,1,1
7.680073200,1,0
7.680081900,1,1
7.680090600,1,0
7.680108000,1,1
7.680116700,1,0
7.680151400,1,1
7.680160100,1,0
7.680168800,1,1
7.680177500,1,0
7.680186200,1,1
7.680194900,1,0
7.680212200,1,1
7.680220900,1,0
7.680229600,1,1
7.680247000,1,0
7.680255700,1,1
7.680264400,1,0
7.680273000,1,1
7.680281700,1,0
7.680290400,1,1
7.680299100,1,0
7.680307800,1,1
7.680333900,1,0
7.680386000,1,1
7.680420700,1,0
7.680455500,1,1
7.680490200,1,0
7.680498900,1,1
7.685410300,0,1
7.685436400,1,1
7.685445100,0,1
7.685453800,1,1
7.685462500,0,1
7.685471100,1,1
7.685479800,0,1
7.685488500,1,1
7.685497200,0,1
7.685505900,1,1
7.685514600,0,1
7.685575400,1,1
7.685584100,0,1
7.685592800,1,1
7.685601500,0,1
7.685662300,1,1
7.685676700,1,0
7.685685400,1,1
7.685711400,1,0
7.685720100,1,1
7.685728800,1,0
7.685737500,1,1
7.685746200,1,0
7.685754900,1,1
7.685763600,1,0
7.685772200,1,1
7.685789600,1,0
7.685798300,1,1
7.685807000,1,0
7.685824400,1,1
7.685833100,1,0
7.685841700,1,1
7.685850400,1,0
7.685859100,1,1
7.685876500,1,0
7.685893900,1,1
7.685911300,1,0
7.685928600,1,1
7.685937300,1,0
7.686015500,1,1
7.686024200,1,0
7.686102400,1,1
7.686111100,1,0
7.686189200,1,1
7.686197900,1,0
7.686276100,1,1
7.686284800,1,0
7.686363000,1,1
7.686371700,1,0
7.686449900,1,1
7.686458600,1,0
7.686536800,1,1
7.686545400,1,0
7.686623600,1,1
7.686632300,1,0
7.686710500,1,1
7.686719200,1,0
7.686797400,1,1
7.686806100,1,0
7.686884300,1,1
7.686893000,1,0
7.686971100,1,1
7.686979800,1,0
7.687058000,1,1
7.687066700,1,0
7.687144900,1,1
7.687153600,1,0
7.687231800,1,1
7.687240500,1,0
7.687318600,1,1
7.687327300,1,0
7.687405500,1,1
7.687414200,1,0
7.687492400,1,1
7.687501100,1,0
7.687579300,1,1
7.687588000,1,0
7.687666100,1,1
7.687674800,1,0
7.687753000,1,1
7.687761700,1,0
7.687839900,1,1
7.687848600,1,0
7.687926800,1,1
7.687935500,1,0
7.688013600,1,1
7.688022300,1,0
7.688100500,1,1
7.688109200,1,0
7.688187400,1,1
7.688196100,1,0
7.688274300,1,1
7.688283000,1,0
7.688361100,1,1
7.688369800,1,0
7.688448000,1,1
7.688456700,1,0
7.688534900,1,1
7.688543600,1,0
7.688621800,1,1
7.688630500,1,0
7.688708600,1,1
7.688717300,1,0
7.688795500,1,1
7.688804200,1,0
7.688882400,1,1
7.688891100,1,0
7.688969300,1,1
7.688978000,1,0
7.689056100,1,1
7.689064800,1,0
7.689143000,1,1
7.689151700,1,0
7.689229900,1,1
7.689238600,1,0
7.689316800,1,1
7.689325500,1,0
7.689403600,1,1
7.689412300,1,0
7.689490500,1,1
7.689499200,1,0
7.689577400,1,1
7.689586100,1,0
7.689664300,1,1
7.689673000,1,0
7.689751100,1,1
7.689759800,1,0
7.689838000,1,1
7.689846700,1,0
7.689924900,1,1
7.689933600,1,0
7.690011800,1,1
7.690020500,1,0
7.690098600,1,1
7.690107300,1,0
7.690185500,1,1
7.690194200,1,0
7.690272400,1,1
7.690281100,1,0
7.690359300,1,1
7.690368000,1,0
7.690446100,1,1
7.690454800,1,0
7.690533000,1,1
7.690541700,1,0
7.690619900,1,1
7.690628600,1,0
7.690706800,1,1
7.690715500,1,0
7.690793600,1,1
7.690802300,1,0
7.690880500,1,1
7.690889200,1,0
7.690967400,1,1
7.690976100,1,0
7.691054300,1,1
7.691063000,1,0
7.691141100,1,1
7.691149800,1,0
7.691228000,1,1
7.691236700,1,0
7.691314900,1,1
7.691323600,1,0
7.691401800,1,1
7.691410500,1,0
7.691488600,1,1
7.691497300,1,0
7.691575500,1,1
7.691584200,1,0
7.691662400,1,1
7.691671100,1,0
7.691749300,1,1
7.691758000,1,0
7.691836200,1,1
7.691844800,1,0
7.691923000,1,1
7.691931700,1,0
7.692009900,1,1
7.692018600,1,0
7.692096800,1,1
7.692105500,1,0
7.692183700,1,1
7.692192400,1,0
7.692270500,1,1
7.692279200,1,0
7.692357400,1,1
12.782010100,1,0
12.782044800,1,1
12.782062200,1,0
12.782070900,1,1
12.782079600,1,0
12.782088200,1,1
12.782096900,1,0
12.782140400,1,1
12.782149100,1,0
12.782175100,1,1
12.782183800,1,0
12.782201200,1,1
12.782209900,1,0
12.782227200,1,1
12.782244600,1,0
12.782262000,1,1
12.782270700,1,0
12.782305400,1,1
12.782340200,1,0
12.782348900,1,1
12.782357600,1,0
12.782383600,1,1
12.782392300,1,0
12.782418400,1,1
12.782427100,1,0
12.782435700,1,1
12.782444400,1,0
12.782453100,1,1
12.782461800,1,0
12.782487900,1,1
12.782513900,1,0
12.782522600,1,1
12.782531300,1,0
12.782540000,1,1
12.782557400,1,0
12.782583400,1,1
12.782592100,1,0
12.782609500,1,1
12.782618200,1,0
12.782635600,1,1
12.782644200,1,0
12.782679000,1,1
12.782687700,1,0
12.782696400,1,1
12.782705100,1,0
12.782713700,1,1
12.782722400,1,0
12.782731100,1,1
12.782739800,1,0
12.782748500,1,1
12.782765900,1,0
12.782783200,1,1
12.782791900,1,0
12.782800600,1,1
12.782809300,1,0
12.782826700,1,1
12.782844100,1,0
12.782852700,1,1
12.782861400,1,0
12.782870100,1,1
12.782878800,1,0
12.782922200,1,1
12.782939600,1,0
12.782957000,1,1
12.782965700,1,0
12.783009100,1,1
12.783026500,1,0
12.783043900,1,1
12.783052600,1,0
12.783096000,1,1
12.783113400,1,0
12.783130700,1,1
12.783139400,1,0
12.783182900,1,1
12.783200300,1,0
12.783217600,1,1
12.783226300,1,0
12.783269700,1,1
12.783287100,1,0
12.783304500,1,1
12.783313200,1,0
12.783356600,1,1
12.783374000,1,0
12.783391400,1,1
12.783400100,1,0
12.783443500,1,1
12.783460900,1,0
12.783478200,1,1
12.783486900,1,0
12.783530400,1,1
12.783547800,1,0
12.783565100,1,1
12.789784200,0,1
12.789792900,1,1
12.789801600,0,1
12.789819000,1,1
12.789836400,0,1
12.789845000,1,1
12.789853700,0,1
12.789862400,1,1
12.789871100,0,1
12.789914500,1,1
12.789923200,0,1
12.789949300,1,1
12.789958000,0,1
12.789966700,1,1
12.789975400,0,1
12.789984000,1,1
12.789992700,0,1
12.790001400,1,1
12.790010100,0,1
12.790036200,1,1
12.790044900,0,1
12.790079600,1,1
12.790131700,0,1
12.790166500,1,1
12.790201200,0,1
12.790209900,1,1
12.790218600,0,1
12.790227300,1,1
12.790244700,0,1
