Time [s],Channel 1,Channel 2
0.000000000,1,1
2.589738500,1,0
2.589747100,1,1
2.589755800,1,0
2.589764500,1,1
2.589773200,1,0
2.589781900,1,1
2.589790600,1,0
2.589799200,1,1
2.589807900,1,0
2.589816600,1,1
2.589825300,1,0
2.589834000,1,1
2.589851300,1,0
2.589886000,1,1
2.589894700,1,0
2.589903400,1,1
2.593030000,0,1
2.593047400,1,1
2.593056100,0,1
2.593090800,1,1
2.593116800,0,1
2.593142900,1,1
2.593168900,0,1
2.593195000,1,1
2.593203600,0,1
2.593212300,1,1
2.593238400,0,1
2.593247000,1,1
2.593264400,0,1
2.593281800,1,1
2.593290500,0,1
2.593299100,1,1
2.593307800,0,1
2.593316500,1,1
2.593333900,0,1
2.593342500,1,1
2.593351200,0,1
2.593368600,1,1
2.593377300,0,1
2.593385900,1,1
2.593403300,0,1
2.593412000,1,1
2.593429400,0,1
2.593446700,1,1
2.593464100,0,1
2.593481400,1,1
2.593498800,0,1
2.593516200,1,1
2.593533500,0,1
2.593542200,1,1
2.593550900,0,1
2.593568200,1,1
2.593585600,0,1
2.593594300,1,1
2.593603000,0,1
2.593620300,1,1
2.593637700,0,1
2.593663700,1,1
2.593672400,0,1
2.593681100,1,1
2.593698500,0,1
2.593707100,1,1
2.593724500,0,1
2.593741900,1,1
2.593759200,0,1
2.593785300,1,1
2.593794000,0,1
2.593802600,1,1
2.593811300,0,1
2.593828700,1,1
2.593854700,0,1
2.593863400,1,1
2.593872100,0,1
2.593880800,1,1
2.593898100,0,1
2.593915500,1,1
2.593924200,0,1
2.593932900,1,1
2.593950200,0,1
2.593958900,1,1
2.593985000,0,1
2.594019700,1,1
2.594045700,0,1
2.594054400,1,1
2.594071800,0,1
2.594089100,1,1
2.594097800,0,1
2.594106500,1,1
2.594123900,0,1
2.594141200,1,1
2.594158600,0,1
2.594175900,1,1
2.594184600,0,1
2.594193300,1,1
2.594202000,0,1
2.594219300,1,1
2.594228000,0,1
2.594236700,1,1
2.594245400,0,1
2.594262800,1,1
2.594271400,0,1
2.594280100,1,1
2.594297500,0,1
2.594323500,1,1
2.594330300,1,0
2.594347700,1,1
2.594356400,1,0
2.594365000,1,1
2.594382400,1,0
2.594391100,1,1
2.594399800,1,0
2.594408400,1,1
2.594415200,0,1
2.594449900,1,1
2.594502000,0,1
2.594554100,1,1
2.594562800,0,1
2.594571500,1,1
2.594588900,0,1
2.594667000,1,1
2.594675700,0,1
2.594719100,1,1
2.594745100,0,1
2.594753800,1,1
2.594762500,0,1
2.594788500,1,1
2.594797200,0,1
2.594805900,1,1
2.594814600,0,1
2.594840600,1,1
2.594849300,0,1
2.594858000,1,1
2.594875300,0,1
2.594892700,1,1
2.594910100,0,1
2.594927400,1,1
2.594936100,0,1
2.594944800,1,1
2.594970800,0,1
2.594988200,1,1
2.594996900,0,1
2.595005500,1,1
2.595022900,0,1
2.595031600,1,1
2.595040300,0,1
2.595057600,1,1
2.595109700,0,1
2.595144400,1,1
2.595161800,0,1
2.595179200,1,1
2.599011700,1,0
2.599020400,1,1
2.599029100,1,0
2.599037800,1,1
2.599046400,1,0
2.599055100,1,1
2.599098500,1,0
2.599115900,1,1
2.599124600,1,0
2.599141900,1,1
2.599150600,1,0
2.599159300,1,1
2.599185300,1,0
2.599194000,1,1
2.599202700,1,0
2.599211400,1,1
2.599237400,1,0
2.599254800,1,1
2.599272200,1,0
2.599280800,1,1
2.599298200,1,0
2.599306900,1,1
2.599315600,1,0
2.599324200,1,1
2.599341600,1,0
2.599350300,1,1
2.599359000,1,0
2.599367600,1,1
2.599376300,1,0
2.599385000,1,1
2.599393700,1,0
2.599411000,1,1
2.599445800,1,0
2.599454500,1,1
2.599471800,1,0
2.599523900,1,1
2.599532600,1,0
2.599558600,1,1
2.599593400,1,0
2.599602000,1,1
2.599619400,1,0
2.599645400,1,1
2.599654100,1,0
2.599671500,1,1
2.599706200,1,0
2.599714900,1,1
2.599732300,1,0
2.599740900,1,1
2.599749600,1,0
2.599767000,1,1
2.599793000,1,0
2.599810400,1,1
2.599819100,1,0
2.599845100,1,1
2.599853800,1,0
2.599871200,1,1
2.599879800,1,0
2.599888500,1,1
2.599897200,1,0
2.599905900,1,1
2.599914600,1,0
2.599940600,1,1
2.599966700,1,0
2.599984000,1,1
2.599992700,1,0
2.600010100,1,1
2.600018700,1,0
2.600036100,1,1
2.600053500,1,0
2.600062100,1,1
2.600079500,1,0
2.600088200,1,1
2.600105600,1,0
2.600131600,1,1
2.600140300,1,0
2.600157600,1,1
2.600166300,1,0
2.600183700,1,1
2.600192400,1,0
2.600201000,1,1
2.600209700,1,0
2.600218400,1,1
2.600227100,1,0
2.600244400,1,1
2.600261800,1,0
2.600287900,1,1
2.600313100,0,1
2.600330400,1,1
2.600339100,0,1
2.600347800,1,1
2.600365200,0,1
2.600373900,1,1
2.600382500,0,1
2.600391200,1,1
2.600398500,1,0
2.600407200,1,1
2.600415900,1,0
2.600433300,1,1
2.600442000,1,0
2.600459300,1,1
2.600468000,1,0
2.600476700,1,1
2.600485400,1,0
2.600494000,1,1
2.600511400,1,0
2.600520100,1,1
2.600572200,1,0
2.600580800,1,1
2.600589500,1,0
2.600615600,1,1
2.600632900,1,0
2.600650300,1,1
2.600659000,1,0
2.600676300,1,1
2.600719800,1,0
2.600728400,1,1
2.600745800,1,0
2.600754500,1,1
2.600763200,1,0
2.600797900,1,1
2.600806600,1,0
2.600815200,1,1
2.600832600,1,0
2.600850000,1,1
2.600876000,1,0
2.600884700,1,1
2.600919400,1,0
2.600928100,1,1
2.600954100,1,0
2.600997500,1,1
2.601006200,1,0
2.601014900,1,1
2.601023600,1,0
2.601040900,1,1
2.601075700,1,0
2.601084400,1,1
2.601093000,1,0
2.601101700,1,1
2.601127800,1,0
2.601136400,1,1
2.601153800,1,0
2.601162500,1,1
2.601179900,1,0
2.601188500,1,1
2.601205900,1,0
2.601214600,1,1
2.601223300,1,0
2.601231900,1,1
2.601240600,1,0
2.601249300,1,1
2.601266700,1,0
2.601275300,1,1
2.601301400,1,0
2.601310100,1,1
2.601318800,1,0
2.601327400,1,1
2.601353500,1,0
2.601388200,1,1
2.601405600,1,0
2.601414200,1,1
2.601422900,1,0
2.601431600,1,1
2.601440300,1,0
2.601449000,1,1
2.601457700,1,0
2.601475000,1,1
2.601483700,1,0
2.601492400,1,1
2.601501100,1,0
2.601518400,1,1
2.601527100,1,0
2.601535800,1,1
2.601544500,1,0
2.601553100,1,1
2.601561800,1,0
2.601570500,1,1
2.601579200,1,0
2.601596500,1,1
2.601613900,1,0
2.601666000,1,1
2.601683400,1,0
2.601692000,1,1
2.601698800,0,1
2.601716200,1,1
2.601724900,0,1
2.601733600,1,1
2.601750900,0,1
2.601759600,1,1
2.601768300,0,1
2.601777000,1,1
2.601784300,1,0
2.601793000,1,1
2.601810300,1,0
2.601862400,1,1
2.601871100,1,0
2.601905800,1,1
2.601914500,1,0
2.601923200,1,1
2.601931900,1,0
2.601940500,1,1
2.601957900,1,0
2.601966600,1,1
2.602001300,1,0
2.602010000,1,1
2.602018700,1,0
2.602027400,1,1
2.602044700,1,0
2.602053400,1,1
2.602062100,1,0
2.602079400,1,1
2.602131500,1,0
2.602140200,1,1
2.602157600,1,0
2.602166300,1,1
2.602174900,1,0
2.602183600,1,1
2.602201000,1,0
2.602209700,1,1
2.602218400,1,0
2.602227000,1,1
2.602244400,1,0
2.602279100,1,1
2.602287800,1,0
2.602296500,1,1
2.602305200,1,0
2.602331200,1,1
2.602348600,1,0
2.602357200,1,1
2.602374600,1,0
2.602383300,1,1
2.602392000,1,0
2.602418000,1,1
2.602435400,1,0
2.602444100,1,1
2.602461400,1,0
2.602470100,1,1
2.602478800,1,0
2.602496200,1,1
2.602504800,1,0
2.602513500,1,1
2.602565600,1,0
2.602583000,1,1
2.602591700,1,0
2.602609000,1,1
2.602617700,1,0
2.602643700,1,1
2.602652400,1,0
2.602678500,1,1
2.602687200,1,0
2.602704500,1,1
2.602713200,1,0
2.602730500,1,1
2.602739200,1,0
2.602765300,1,1
2.602774000,1,0
2.602800000,1,1
2.602826100,1,0
2.602834700,1,1
2.602869500,1,0
2.602886800,1,1
2.602895500,1,0
2.602904200,1,1
2.602912900,1,0
2.602930200,1,1
2.602938900,1,0
2.602947600,1,1
2.602965000,1,0
2.602973600,1,1
2.602982300,1,0
2.602991000,1,1
2.602999700,1,0
2.603017000,1,1
2.603034400,1,0
2.603043100,1,1
2.603060400,1,0
2.603077800,1,1
2.603085700,0,1
2.603103000,1,1
2.603111700,0,1
2.603120400,1,1
2.603137800,0,1
2.603146400,1,1
2.603155100,0,1
2.603163800,1,1
2.603171100,1,0
2.603179800,1,1
2.603188500,1,0
2.603231900,1,1
2.603240600,1,0
2.603249300,1,1
2.603257900,1,0
2.603284000,1,1
2.603292700,1,0
2.603301300,1,1
2.603310000,1,0
2.603336100,1,1
2.603344800,1,0
2.603362100,1,1
2.603370800,1,0
2.603388200,1,1
2.603396800,1,0
2.603414200,1,1
2.603431600,1,0
2.603483600,1,1
2.603492300,1,0
2.603509700,1,1
2.603518400,1,0
2.603527100,1,1
2.603535700,1,0
2.603544400,1,1
2.603561800,1,0
2.603570500,1,1
2.603579200,1,0
2.603587800,1,1
2.603605200,1,0
2.603613900,1,1
2.603631200,1,0
2.603639900,1,1
2.603648600,1,0
2.603666000,1,1
2.603674600,1,0
2.603683300,1,1
2.603692000,1,0
2.603735400,1,1
2.603752800,1,0
2.603770100,1,1
2.603778800,1,0
2.603787500,1,1
2.603796200,1,0
2.603822200,1,1
2.603839600,1,0
2.603856900,1,1
2.603865600,1,0
2.603874300,1,1
2.603883000,1,0
2.603891700,1,1
2.603909000,1,0
2.603943800,1,1
2.603952400,1,0
2.603961100,1,1
2.603969800,1,0
2.603978500,1,1
2.603987200,1,0
2.604004500,1,1
2.604021900,1,0
2.604030600,1,1
2.604039300,1,0
2.604065300,1,1
2.604074000,1,0
2.604091300,1,1
2.604100000,1,0
2.604117400,1,1
2.604126100,1,0
2.604143400,1,1
2.604152100,1,0
2.604160800,1,1
2.604195500,1,0
2.604204200,1,1
2.604212900,1,0
2.604238900,1,1
2.604247600,1,0
2.604265000,1,1
2.604273700,1,0
2.604291000,1,1
2.604299700,1,0
2.604317000,1,1
2.604343100,1,0
2.604351800,1,1
2.604369100,1,0
2.604377800,1,1
2.604386500,1,0
2.604395200,1,1
2.604403900,1,0
2.604429900,1,1
2.604438600,1,0
2.604464600,1,1
2.604471400,0,1
2.604488800,1,1
2.604497500,0,1
2.604506200,1,1
2.604523500,0,1
2.604532200,1,1
2.604540900,0,1
2.604549600,1,1
2.604556900,1,0
2.604565500,1,1
2.604574200,1,0
2.604582900,1,1
2.604643700,1,0
2.604652400,1,1
2.604678400,1,0
2.604713100,1,1
2.604730500,1,0
2.604739200,1,1
2.604756500,1,0
2.604773900,1,1
2.604791300,1,0
2.604808600,1,1
2.604817300,1,0
2.604826000,1,1
2.604834700,1,0
2.604843300,1,1
2.604852000,1,0
2.604895400,1,1
2.604904100,1,0
2.604921500,1,1
2.604938900,1,0
2.604956200,1,1
2.604964900,1,0
2.604973600,1,1
2.604990900,1,0
2.605008300,1,1
2.605017000,1,0
2.605051700,1,1
2.605060400,1,0
2.605069100,1,1
2.605077800,1,0
2.605086400,1,1
2.605095100,1,0
2.605103800,1,1
2.605121200,1,0
2.605129800,1,1
2.605138500,1,0
2.605147200,1,1
2.605164600,1,0
2.605173200,1,1
2.605181900,1,0
2.605190600,1,1
2.605208000,1,0
2.605225300,1,1
2.605251400,1,0
2.605260000,1,1
2.605268700,1,0
2.605277400,1,1
2.605286100,1,0
2.605312100,1,1
2.605320800,1,0
2.605329500,1,1
2.605338200,1,0
2.605355500,1,1
2.605364200,1,0
2.605398900,1,1
2.605407600,1,0
2.605416300,1,1
2.605425000,1,0
2.605433700,1,1
2.605459700,1,0
2.605477100,1,1
2.605511800,1,0
2.605520500,1,1
2.605581300,1,0
2.605589900,1,1
2.605598600,1,0
2.605624700,1,1
2.605650700,1,0
2.605659400,1,1
2.605685400,1,0
2.605694100,1,1
2.605702800,1,0
2.605711500,1,1
2.605720200,1,0
2.605737500,1,1
2.605746200,1,0
2.605763600,1,1
2.605772300,1,0
2.605815600,1,1
2.605833000,1,0
2.605841700,1,1
2.605857200,0,1
2.605874500,1,1
2.605883200,0,1
2.605891900,1,1
2.605909300,0,1
2.605918000,1,1
2.605926600,0,1
2.605935300,1,1
2.605942600,1,0
2.605968700,1,1
2.605986000,1,0
2.606012100,1,1
2.606029400,1,0
2.606046800,1,1
2.606064200,1,0
2.606072800,1,1
2.606081500,1,0
2.606090200,1,1
2.606116200,1,0
2.606124900,1,1
2.606133600,1,0
2.606151000,1,1
2.606159700,1,0
2.606177000,1,1
2.606203100,1,0
2.606211700,1,1
2.606220400,1,0
2.606229100,1,1
2.606246500,1,0
2.606281200,1,1
2.606289900,1,0
2.606307200,1,1
2.606315900,1,0
2.606324600,1,1
2.606342000,1,0
2.606368000,1,1
2.606376700,1,0
2.606385400,1,1
2.606394000,1,0
2.606454800,1,1
2.606463500,1,0
2.606480900,1,1
2.606489500,1,0
2.606498200,1,1
2.606515600,1,0
2.606532900,1,1
2.606550300,1,0
2.606559000,1,1
2.606619800,1,0
2.606628400,1,1
2.606637100,1,0
2.606645800,1,1
2.606654500,1,0
2.606671800,1,1
2.606680500,1,0
2.606697900,1,1
2.606723900,1,0
2.606732600,1,1
2.606741300,1,0
2.606750000,1,1
2.606758700,1,0
2.606784700,1,1
2.606793400,1,0
2.606802100,1,1
2.606810800,1,0
2.606819400,1,1
2.606836800,1,0
2.606854200,1,1
2.606862800,1,0
2.606871500,1,1
2.606880200,1,0
2.606888900,1,1
2.606897600,1,0
2.606906200,1,1
2.606914900,1,0
2.606923600,1,1
2.606932300,1,0
2.606941000,1,1
2.606958300,1,0
2.606975700,1,1
2.606984400,1,0
2.607001700,1,1
2.607010400,1,0
2.607019100,1,1
2.607036500,1,0
2.607045100,1,1
2.607053800,1,0
2.607062500,1,1
2.607071200,1,0
2.607088500,1,1
2.607097200,1,0
2.607132000,1,1
2.607158000,1,0
2.607184000,1,1
2.607210100,1,0
2.607236100,1,1
2.607244000,0,1
2.607261400,1,1
2.607270100,0,1
2.607278800,1,1
2.607296100,0,1
2.607304800,1,1
2.607313500,0,1
2.607322100,1,1
2.607329500,1,0
2.607338100,1,1
2.607364200,1,0
2.607372900,1,1
2.607390200,1,0
2.607407600,1,1
2.607416300,1,0
2.607424900,1,1
2.607433600,1,0
2.607442300,1,1
2.607459700,1,0
2.607468400,1,1
2.607477000,1,0
2.607494400,1,1
2.607503100,1,0
2.607511800,1,1
2.607529100,1,0
2.607537800,1,1
2.607555200,1,0
2.607572500,1,1
2.607589900,1,0
2.607607300,1,1
2.607624600,1,0
2.607642000,1,1
2.607659400,1,0
2.607668000,1,1
2.607676700,1,0
2.607694100,1,1
2.607711400,1,0
2.607720100,1,1
2.607728800,1,0
2.607746200,1,1
2.607763500,1,0
2.607789600,1,1
2.607798300,1,0
2.607806900,1,1
2.607824300,1,0
2.607833000,1,1
2.607850300,1,0
2.607867700,1,1
2.607885100,1,0
2.607911100,1,1
2.607919800,1,0
2.607928500,1,1
2.607937200,1,0
2.607954500,1,1
2.607980600,1,0
2.607989200,1,1
2.607997900,1,0
2.608006600,1,1
2.608024000,1,0
2.608041300,1,1
2.608050000,1,0
2.608058700,1,1
2.608076100,1,0
2.608084700,1,1
2.608110800,1,0
2.608145500,1,1
2.608171500,1,0
2.608180200,1,1
2.608197600,1,0
2.608214900,1,1
2.608223600,1,0
2.608232300,1,1
2.608249700,1,0
2.608267000,1,1
2.608284400,1,0
2.608301800,1,1
2.608310400,1,0
2.608319100,1,1
2.608327800,1,0
2.608345200,1,1
2.608353900,1,0
2.608362500,1,1
2.608371200,1,0
2.608388600,1,1
2.608397300,1,0
2.608405900,1,1
2.608423300,1,0
2.608449300,1,1
2.608458000,1,0
2.608492700,1,1
2.608544800,1,0
2.608596900,1,1
2.608605600,1,0
2.608614300,1,1
2.608629800,0,1
2.608647100,1,1
2.608655800,0,1
2.608664500,1,1
2.608681900,0,1
2.608690500,1,1
2.608699200,0,1
2.608707900,1,1
2.608715200,1,0
2.608793300,1,1
2.608802000,1,0
2.608845400,1,1
2.608871500,1,0
2.608880100,1,1
2.608888800,1,0
2.608914900,1,1
2.608923600,1,0
2.608932200,1,1
2.608940900,1,0
2.608967000,1,1
2.608975600,1,0
2.608984300,1,1
2.609001700,1,0
2.609019000,1,1
2.609036400,1,0
2.609053800,1,1
2.609062500,1,0
2.609071100,1,1
2.609097200,1,0
2.609114500,1,1
2.609123200,1,0
2.609131900,1,1
2.609149300,1,0
2.609157900,1,1
2.609166600,1,0
2.609184000,1,1
2.609236100,1,0
2.609270800,1,1
2.609288200,1,0
2.609305500,1,1
2.609322900,1,0
2.609348900,1,1
2.609357600,1,0
2.609375000,1,1
2.609409700,1,0
2.609418400,1,1
2.609435800,1,0
2.609461800,1,1
2.609496500,1,0
2.609513900,1,1
2.609522600,1,0
2.609539900,1,1
2.609548600,1,0
2.609574600,1,1
2.609583300,1,0
2.609600700,1,1
2.609609400,1,0
2.609618000,1,1
2.609626700,1,0
2.609635400,1,1
2.609670100,1,0
2.609678800,1,1
2.609687500,1,0
2.609696200,1,1
2.609704900,1,0
2.609730900,1,1
2.609739600,1,0
2.609748300,1,1
2.609757000,1,0
2.609765600,1,1
2.609826400,1,0
2.609835100,1,1
2.609843800,1,0
2.609852400,1,1
2.609869800,1,0
2.609913200,1,1
2.609930600,1,0
2.609939300,1,1
2.609947900,1,0
2.609965300,1,1
2.609974000,1,0
2.609982700,1,1
2.610015500,0,1
2.610032900,1,1
2.610041600,0,1
2.610050300,1,1
2.610067600,0,1
2.610076300,1,1
2.610085000,0,1
2.610093700,1,1
2.610101000,1,0
2.610109600,1,1
2.610118300,1,0
2.610127000,1,1
2.610153000,1,0
2.610179100,1,1
2.610187800,1,0
2.610196400,1,1
2.610205100,1,0
2.610231200,1,1
2.610239900,1,0
2.610248500,1,1
2.610274600,1,0
2.610318000,1,1
2.610344000,1,0
2.610352700,1,1
2.610361400,1,0
2.610413500,1,1
2.610422200,1,0
2.610430800,1,1
2.610448200,1,0
2.610465600,1,1
2.610474200,1,0
2.610482900,1,1
2.610509000,1,0
2.610517700,1,1
2.610535000,1,0
2.610543700,1,1
2.610552400,1,0
2.610587100,1,1
2.610595800,1,0
2.610613100,1,1
2.610621800,1,0
2.610673900,1,1
2.610691300,1,0
2.610700000,1,1
2.610708700,1,0
2.610717300,1,1
2.610726000,1,0
2.610734700,1,1
2.610743400,1,0
2.610752000,1,1
2.610760700,1,0
2.610778100,1,1
3.340355500,0,1
3.340433700,1,1
3.340442400,0,1
3.340520500,1,1
3.340529200,0,1
3.340607300,1,1
3.340616000,0,1
3.340694100,1,1
3.340703700,1,0
3.340781800,1,1
3.340790500,1,0
3.340868600,1,1
3.340877300,1,0
3.340955400,1,1
3.340964100,1,0
3.341042200,1,1
3.342303400,0,1
3.342329400,1,1
3.342355500,0,1
3.342364200,1,1
3.342372900,0,1
3.342381500,1,1
3.342390200,0,1
3.342398900,1,1
3.342433600,0,1
3.342442300,1,1
3.342451000,0,1
3.342459700,1,1
3.342477000,0,1
3.342485700,1,1
3.342494400,0,1
3.342503100,1,1
3.342520400,0,1
3.342546500,1,1
3.342563800,0,1
3.342581200,1,1
3.342589900,0,1
3.342598600,1,1
3.342607300,0,1
3.342615900,1,1
3.342633300,0,1
3.342642000,1,1
3.342650700,0,1
3.342659300,1,1
3.342720100,0,1
3.342728800,1,1
3.342737500,0,1
3.342746100,1,1
3.342754800,0,1
3.342763500,1,1
3.342780900,0,1
3.342806900,1,1
3.342824300,0,1
3.342859000,1,1
3.342867700,0,1
3.342885000,1,1
3.342893700,0,1
3.342902400,1,1
3.342911100,0,1
3.342928400,1,1
3.342945800,0,1
3.342954500,1,1
3.342963200,0,1
3.342980500,1,1
3.342997900,0,1
3.343024000,1,1
3.343032600,0,1
3.343041300,1,1
3.343050000,0,1
3.343058700,1,1
3.343067400,0,1
3.343076000,1,1
3.343084700,0,1
3.343093400,1,1
3.343110800,0,1
3.343119400,1,1
3.343136800,0,1
3.343145500,1,1
3.343154200,0,1
3.343162900,1,1
3.343171500,0,1
3.343206300,1,1
3.343223600,0,1
3.343249700,1,1
3.343258300,0,1
3.343267000,1,1
3.343284400,0,1
3.343327800,1,1
3.343345200,0,1
3.343362500,1,1
3.343371200,0,1
3.343379900,1,1
3.343405900,0,1
3.343423300,1,1
3.343432000,0,1
3.343458000,1,1
3.343466700,0,1
3.343475400,1,1
3.343484100,0,1
3.343510100,1,1
3.343518800,0,1
3.343527500,1,1
3.343553500,0,1
3.343579600,1,1
3.343603200,1,0
3.343620600,1,1
3.343629300,1,0
3.343637900,1,1
3.343655300,1,0
3.343664000,1,1
3.343672700,1,0
3.343681300,1,1
3.343688100,0,1
3.343705400,1,1
3.343722800,0,1
3.343731500,1,1
3.343748900,0,1
3.343766200,1,1
3.343774900,0,1
3.343783600,1,1
3.343792300,0,1
3.343800900,1,1
3.343818300,0,1
3.343827000,1,1
3.343861700,0,1
3.343870400,1,1
3.343905100,0,1
3.343913800,1,1
3.343931200,0,1
3.343939800,1,1
3.343948500,0,1
3.344000600,1,1
3.344009300,0,1
3.344018000,1,1
3.344035300,0,1
3.344052700,1,1
3.344070100,0,1
3.344078700,1,1
3.344087400,0,1
3.344096100,1,1
3.344122100,0,1
3.344148200,1,1
3.344156900,0,1
3.344165500,1,1
3.344182900,0,1
3.344200300,1,1
3.344209000,0,1
3.344217600,1,1
3.344243700,0,1
3.344261000,1,1
3.344269700,0,1
3.344278400,1,1
3.344295800,0,1
3.344304400,1,1
3.344313100,0,1
3.344330500,1,1
3.344382600,0,1
3.344417300,1,1
3.344434700,0,1
3.344452000,1,1
3.346405600,1,0
3.346423000,1,1
3.346431700,1,0
3.346440400,1,1
3.346449100,1,0
3.346457700,1,1
3.346466400,1,0
3.346483800,1,1
3.346492500,1,0
3.346527200,1,1
3.346553200,1,0
3.346561900,1,1
3.346579300,1,0
3.346614000,1,1
3.346631400,1,0
3.346640000,1,1
3.346666100,1,0
3.346700800,1,1
3.346709500,1,0
3.346726800,1,1
3.346735500,1,0
3.346744200,1,1
3.346752900,1,0
3.346770200,1,1
3.346778900,1,0
3.346796300,1,1
3.346822300,1,0
3.346831000,1,1
3.346839700,1,0
3.346857100,1,1
3.346891800,1,0
3.346917800,1,1
3.346926500,1,0
3.346935200,1,1
3.346943900,1,0
3.346952600,1,1
3.346961200,1,0
3.346969900,1,1
3.346978600,1,0
3.346987300,1,1
3.346996000,1,0
3.347004600,1,1
3.347013300,1,0
3.347039400,1,1
3.347065400,1,0
3.347082800,1,1
3.347100100,1,0
3.347117500,1,1
3.347169600,1,0
3.347178300,1,1
3.347187000,1,0
3.347204300,1,1
3.347221700,1,0
3.347256400,1,1
3.347273800,1,0
3.347291100,1,1
3.347299800,1,0
3.347308500,1,1
3.347325900,1,0
3.347343200,1,1
3.347360600,1,0
3.347404000,1,1
3.347412700,1,0
3.347438700,1,1
3.347447400,1,0
3.347456100,1,1
3.347464800,1,0
3.347473400,1,1
3.347482100,1,0
3.347499500,1,1
3.347508200,1,0
3.347516800,1,1
3.347534200,1,0
3.347551600,1,1
3.347568900,1,0
3.347577600,1,1
3.347586300,1,0
3.347595000,1,1
3.347621000,1,0
3.347638400,1,1
3.347681800,1,0
3.347699200,1,1
3.347707000,0,1
3.347724300,1,1
3.347733000,0,1
3.347741700,1,1
3.347759100,0,1
3.347767700,1,1
3.347776400,0,1
3.347785100,1,1
3.347792500,1,0
3.347818500,1,1
3.347827200,1,0
3.347861900,1,1
3.347879300,1,0
3.347888000,1,1
3.347914000,1,0
3.347940100,1,1
3.347966100,1,0
3.347983500,1,1
3.347992200,1,0
3.348000800,1,1
3.348026900,1,0
3.348044200,1,1
3.348052900,1,0
3.348061600,1,1
3.348079000,1,0
3.348087600,1,1
3.348096300,1,0
3.348113700,1,1
3.348122400,1,0
3.348131000,1,1
3.348139700,1,0
3.348174400,1,1
3.348191800,1,0
3.348217900,1,1
3.348226500,1,0
3.348252600,1,1
3.348313400,1,0
3.348322000,1,1
3.348339400,1,0
3.348348100,1,1
3.348356800,1,0
3.348374100,1,1
3.348400200,1,0
3.348434900,1,1
3.348452300,1,0
3.348478300,1,1
3.348487000,1,0
3.348521700,1,1
3.348530400,1,0
3.348539100,1,1
3.348547800,1,0
3.348556400,1,1
3.348573800,1,0
3.348591100,1,1
3.348599800,1,0
3.348608500,1,1
3.348634600,1,0
3.348651900,1,1
3.348660600,1,0
3.348704000,1,1
3.348712700,1,0
3.348730000,1,1
3.348747400,1,0
