Time [s],Channel 1,Channel 2
0.000000000,1,1
2.511118500,1,0
2.511135800,1,1
2.511144500,1,0
2.511153100,1,1
2.511161800,1,0
2.511170400,1,1
2.511179100,1,0
2.511187700,1,1
2.511213700,1,0
2.511222300,1,1
2.511231000,1,0
2.511239600,1,1
2.511248300,1,0
2.511291500,1,1
2.512730500,0,1
2.512756500,1,1
2.512773800,0,1
2.512791100,1,1
2.512825700,0,1
2.512843000,1,1
2.512851700,0,1
2.512869000,1,1
2.512877700,0,1
2.512895000,1,1
2.512921000,0,1
2.512929600,1,1
2.512946900,0,1
2.512990200,1,1
2.513016200,0,1
2.513024800,1,1
2.513033500,0,1
2.513085400,1,1
2.513111400,0,1
2.513128700,1,1
2.513146000,0,1
2.513154600,1,1
2.513206600,0,1
2.513223900,1,1
2.513241200,0,1
2.513258500,1,1
2.513301800,0,1
2.513327800,1,1
2.513371000,0,1
2.513379700,1,1
2.513397000,0,1
2.513423000,1,1
2.513431700,0,1
2.513457600,1,1
2.513466300,0,1
2.513474900,1,1
2.513492200,0,1
2.513535500,1,1
2.513544200,0,1
2.513552800,1,1
2.513587500,0,1
2.513613400,1,1
2.513630800,0,1
2.513639400,1,1
2.513656700,0,1
2.513665400,1,1
2.513682700,0,1
2.513717300,1,1
2.513726000,0,1
2.513760600,1,1
2.513777900,0,1
2.513786500,1,1
2.513795200,0,1
2.513803800,1,1
2.513812500,0,1
2.513829800,1,1
2.513873100,0,1
2.513881800,1,1
2.513925100,0,1
2.513933700,1,1
2.513968300,0,1
2.513994300,1,1
2.514011600,0,1
2.514028900,1,1
2.514063600,0,1
2.514072200,1,1
2.514080900,0,1
2.514098200,1,1
2.514124200,0,1
2.514132800,1,1
2.514158800,0,1
2.514176100,1,1
2.514193400,0,1
2.514202100,1,1
2.514219400,0,1
2.514228000,1,1
2.514254000,0,1
2.514262700,1,1
2.514271300,0,1
2.514280000,1,1
2.514288700,0,1
2.514306000,1,1
2.514314600,0,1
2.514323300,1,1
2.514349300,0,1
2.514409800,1,1
2.514444400,0,1
2.514479000,1,1
2.514487700,0,1
2.514513600,1,1
2.514539600,0,1
2.514556900,1,1
2.514565600,0,1
2.514582900,1,1
2.514591600,0,1
2.514608900,1,1
2.514634800,0,1
2.514695400,1,1
2.514730100,0,1
2.514747300,1,1
2.514764700,0,1
2.514799300,1,1
2.514825200,0,1
2.514833900,1,1
2.514842600,0,1
2.514851200,1,1
2.514859900,0,1
2.514868500,1,1
2.514877200,0,1
2.514885800,1,1
2.514894500,0,1
2.514903100,1,1
2.514920500,0,1
2.514929100,1,1
2.514937800,0,1
2.514963700,1,1
2.514972400,0,1
2.514989700,1,1
2.515015600,0,1
2.515032900,1,1
2.515058900,0,1
2.515067600,1,1
2.515076200,0,1
2.515084900,1,1
2.515110900,0,1
2.515119500,1,1
2.515145500,0,1
2.515154100,1,1
2.515162800,0,1
2.515171500,1,1
2.515206100,0,1
2.515214700,1,1
2.515223400,0,1
2.515232100,1,1
2.515249400,0,1
2.515266700,1,1
2.515301300,0,1
2.515335900,1,1
2.515344600,0,1
2.515361900,1,1
2.515396500,0,1
2.515413800,1,1
2.515422500,0,1
2.515431100,1,1
2.515465800,0,1
2.515474400,1,1
2.515491700,0,1
2.515500400,1,1
2.515509000,0,1
2.515517700,1,1
2.515535000,0,1
2.515543700,1,1
2.515587000,0,1
2.515595600,1,1
2.515612900,0,1
2.515630200,1,1
2.515682200,0,1
2.515725400,1,1
2.515742800,0,1
2.515751400,1,1
2.515777400,0,1
2.515786000,1,1
2.515812000,0,1
2.515829300,1,1
2.515838000,0,1
2.515855300,1,1
2.515872600,0,1
2.515889900,1,1
2.515898500,0,1
2.515907200,1,1
2.515924500,0,1
2.515933100,1,1
2.515941800,0,1
2.515950500,1,1
2.515967800,0,1
2.515985100,1,1
2.516019700,0,1
2.516028400,1,1
2.516037000,0,1
2.516045700,1,1
2.516063000,0,1
2.516071600,1,1
2.516088900,0,1
2.516106200,1,1
2.516123600,0,1
2.516132200,1,1
2.516158200,0,1
2.516175500,1,1
2.516201400,0,1
2.516218700,1,1
2.516253400,0,1
2.516279300,1,1
2.516296600,0,1
2.516331200,1,1
2.516348500,0,1
2.516383100,1,1
2.516391800,0,1
2.516400500,1,1
2.516417800,0,1
2.516426400,1,1
2.516443700,0,1
2.516452400,1,1
2.516469700,0,1
2.516478300,1,1
2.516538900,0,1
2.516547600,1,1
2.516556200,0,1
2.516573500,1,1
2.516582200,0,1
2.516616800,1,1
2.516634100,0,1
2.516651400,1,1
2.516660100,0,1
2.516686000,1,1
2.516703300,0,1
2.516712000,1,1
2.516729300,0,1
2.516737900,1,1
2.516763900,0,1
2.516772600,1,1
2.516781200,0,1
2.516789900,1,1
2.516824500,0,1
2.516833100,1,1
2.516867800,0,1
2.516885100,1,1
2.516919700,0,1
2.516928300,1,1
2.516937000,0,1
2.516945600,1,1
2.516963000,0,1
2.516980200,1,1
2.516988900,0,1
2.516997500,1,1
2.517014900,0,1
2.517032200,1,1
2.517040800,0,1
2.517049500,1,1
2.517084100,0,1
2.517092700,1,1
2.517110000,0,1
2.517127300,1,1
2.517153300,0,1
2.517187900,1,1
2.517205200,0,1
2.517213900,1,1
2.517222500,0,1
2.517231200,1,1
2.517257200,0,1
2.517265800,1,1
2.517274500,0,1
2.517283100,1,1
2.517300400,0,1
2.517326400,1,1
2.517335000,0,1
2.517369600,1,1
2.517395600,0,1
2.517421600,1,1
2.517438900,0,1
2.517456200,1,1
2.520177000,1,0
2.520203000,1,1
2.520220300,1,0
2.520237600,1,1
2.520272200,1,0
2.520280900,1,1
2.520298300,1,0
2.520315600,1,1
2.520367500,1,0
2.520384800,1,1
2.520393500,1,0
2.520419400,1,1
2.520428100,1,0
2.520445400,1,1
2.520462700,1,0
2.520497400,1,1
2.520558000,1,0
2.520566600,1,1
2.520584000,1,0
2.520601300,1,1
2.520618600,1,0
2.520635900,1,1
2.520653200,1,0
2.520670500,1,1
2.520679200,1,0
2.520687900,1,1
2.520705200,1,0
2.520722500,1,1
2.520748500,1,0
2.520757200,1,1
2.520774500,1,0
2.520800500,1,1
2.520809100,1,0
2.520826400,1,1
2.520843800,1,0
2.520887000,1,1
2.520895700,1,0
2.520904400,1,1
2.520913000,1,0
2.520921700,1,1
2.520939000,1,0
2.520956300,1,1
2.520965000,1,0
2.520973600,1,1
2.520991000,1,0
2.521008300,1,1
2.521034200,1,0
2.521042900,1,1
2.521051600,1,0
2.521086200,1,1
2.521094800,1,0
2.521103500,1,1
2.521129500,1,0
2.521155400,1,1
2.521164100,1,0
2.521172700,1,1
2.521181400,1,0
2.521198700,1,1
2.521224700,1,0
2.521242000,1,1
2.521250700,1,0
2.521259300,1,1
2.521268000,1,0
2.521285300,1,1
2.521294000,1,0
2.521302600,1,1
2.521319900,1,0
2.521328600,1,1
2.521337300,1,0
2.521354600,1,1
2.521363200,1,0
2.521371900,1,1
2.521380500,1,0
2.521389200,1,1
2.521415100,1,0
2.521441100,1,1
2.521449800,1,0
2.521458400,1,1
2.521510400,1,0
2.521519000,1,1
2.521536300,1,0
2.521545000,1,1
2.521553600,1,0
2.521579600,1,1
2.521605500,1,0
2.521614200,1,1
2.521622800,1,0
2.521640100,1,1
2.521666100,1,0
2.521683400,1,1
2.521700800,1,0
2.521718100,1,1
2.521726700,1,0
2.521735400,1,1
2.521752700,1,0
2.521778600,1,1
2.521795900,1,0
2.521804600,1,1
2.521813300,1,0
2.521830600,1,1
2.521865200,1,0
2.521873800,1,1
2.521891100,1,0
2.521899800,1,1
2.521908400,1,0
2.521969000,1,1
2.521986300,1,0
2.521994900,1,1
2.522003600,1,0
2.522020900,1,1
2.522038200,1,0
2.522046900,1,1
2.522055600,1,0
2.522064200,1,1
2.522081500,1,0
2.522090200,1,1
2.522098900,1,0
2.522124800,1,1
2.522133500,1,0
2.522142200,1,1
2.522150800,1,0
2.522159500,1,1
2.522176800,1,0
2.522185500,1,1
2.522202800,1,0
2.522228800,1,1
2.522246100,1,0
2.522254800,1,1
2.522272100,1,0
2.522298000,1,1
2.522324000,1,0
2.522332700,1,1
2.522341400,1,0
2.522350000,1,1
2.522367300,1,0
2.522376000,1,1
2.522393300,1,0
2.522410600,1,1
2.522427900,1,0
2.522445200,1,1
2.522462600,1,0
2.522471200,1,1
2.522488500,1,0
2.522505800,1,1
2.522514500,1,0
2.522540400,1,1
2.522557700,1,0
2.522575000,1,1
2.522601000,1,0
2.522609700,1,1
2.522627000,1,0
2.522635700,1,1
2.522653100,1,0
2.522679000,1,1
2.522687700,1,0
2.522713700,1,1
2.522722400,1,0
2.522731000,1,1
2.522748300,1,0
2.522757000,1,1
2.522774300,1,0
2.522826300,1,1
2.522843600,1,0
2.522852200,1,1
2.522869600,1,0
2.522878300,1,1
2.522886900,1,0
2.522895600,1,1
2.522938900,1,0
2.522973500,1,1
2.522982200,1,0
2.523016800,1,1
2.523034100,1,0
2.523051400,1,1
2.523060100,1,0
2.523068700,1,1
2.523129300,1,0
2.523146600,1,1
2.523155300,1,0
2.523172600,1,1
2.523181300,1,0
2.523207200,1,1
2.523224600,1,0
2.523241900,1,1
2.523250500,1,0
2.523259200,1,1
2.523276500,1,0
2.523293800,1,1
2.523319800,1,0
2.523328400,1,1
2.523337100,1,0
2.523345700,1,1
2.523363000,1,0
2.523371700,1,1
2.523389000,1,0
2.523397700,1,1
2.523415000,1,0
2.523432300,1,1
2.523441000,1,0
2.523449600,1,1
2.523458300,1,0
2.523467000,1,1
2.523484300,1,0
2.523492900,1,1
2.523510300,1,0
2.523518900,1,1
2.523527600,1,0
2.523536200,1,1
2.523553500,1,0
2.523562200,1,1
2.523570800,1,0
2.523588100,1,1
2.523605400,1,0
2.523614100,1,1
2.523622700,1,0
2.523631400,1,1
2.523640000,1,0
2.523666000,1,1
2.523700600,1,0
2.523735200,1,1
2.523743900,1,0
2.523778500,1,1
2.523795800,1,0
2.523804400,1,1
2.523830400,1,0
2.523847700,1,1
2.523865000,1,0
2.523873700,1,1
2.523891000,1,0
2.523916900,1,1
2.523925600,1,0
2.523934200,1,1
2.523986200,1,0
2.524020800,1,1
2.524029400,1,0
2.524038100,1,1
2.524055400,1,0
2.524064100,1,1
2.524081400,1,0
2.524090000,1,1
2.524107400,1,0
2.524116000,1,1
2.524124700,1,0
2.524150600,1,1
2.524176600,1,0
2.524193900,1,1
2.524219900,1,0
2.524237200,1,1
2.524245800,1,0
2.524254500,1,1
2.524271800,1,0
2.524289100,1,1
2.524297800,1,0
2.524306400,1,1
2.524341100,1,0
2.524349700,1,1
2.524367100,1,0
2.524393000,1,1
2.524401700,1,0
2.524410300,1,1
2.524419000,1,0
2.524427600,1,1
2.524436300,1,0
2.524444900,1,1
2.524462200,1,0
2.524470900,1,1
2.524496800,1,0
2.524505500,1,1
2.524531400,1,0
2.524540100,1,1
2.524557400,1,0
2.524574700,1,1
2.524592000,1,0
2.524609300,1,1
2.524618000,1,0
2.524626600,1,1
2.524652600,1,0
2.524661200,1,1
2.524678600,1,0
2.524695900,1,1
2.524721900,1,0
2.524730500,1,1
2.524747800,1,0
2.524756500,1,1
2.524765100,1,0
2.524782400,1,1
2.524799800,1,0
2.524817100,1,1
2.524843000,1,0
2.524851700,1,1
2.524886300,1,0
2.524903600,1,1
2.524912300,1,0
2.524920900,1,1
2.524938300,1,0
2.524955500,1,1
2.524981500,1,0
2.524990200,1,1
2.525007500,1,0
2.525016200,1,1
2.525033500,1,0
2.525050800,1,1
2.525059500,1,0
2.525068100,1,1
2.525085400,1,0
2.525094000,1,1
2.525128700,1,0
2.525146000,1,1
2.525154600,1,0
2.525163300,1,1
2.525180600,1,0
2.525197900,1,1
2.525223800,1,0
2.525258500,1,1
2.525319100,1,0
2.525336500,1,1
2.525345100,1,0
2.525371100,1,1
2.525388500,1,0
2.525397100,1,1
2.525414400,1,0
2.525466300,1,1
2.525509600,1,0
2.525535500,1,1
2.525552900,1,0
2.525570100,1,1
2.526996400,0,1
2.527005100,1,1
2.527013700,0,1
2.527022400,1,1
2.527031000,0,1
2.527039700,1,1
2.527048400,0,1
2.527057000,1,1
2.527065700,0,1
2.527074300,1,1
4.626498900,1,0
4.626516200,1,1
4.626524900,1,0
4.626533500,1,1
4.626542200,1,0
4.626550800,1,1
4.626559500,1,0
4.626568200,1,1
4.626594100,1,0
4.626628800,1,1
4.626637400,1,0
4.626672000,1,1
4.628106400,0,1
4.628132400,1,1
4.628149700,0,1
4.628167000,1,1
4.628201600,0,1
4.628210300,1,1
4.628227600,0,1
4.628253600,1,1
4.628262300,0,1
4.628279600,1,1
4.628296900,0,1
4.628322900,1,1
4.628392200,0,1
4.628400800,1,1
4.628426800,0,1
4.628444100,1,1
4.628487400,0,1
4.628548000,1,1
4.628582700,0,1
4.628591300,1,1
4.628600000,0,1
4.628625900,1,1
4.628643300,0,1
4.628660600,1,1
4.628677900,0,1
4.628686600,1,1
4.628695200,0,1
4.628703900,1,1
4.628721200,0,1
4.628738500,1,1
4.628747200,0,1
4.628755800,1,1
4.628773200,0,1
4.628799100,1,1
4.628807800,0,1
4.628842400,1,1
4.628868400,0,1
4.628877100,1,1
4.628894400,0,1
4.628903000,1,1
4.628911700,0,1
4.628929000,1,1
4.628963700,0,1
4.628972300,1,1
4.628998300,0,1
4.629015600,1,1
4.629058900,0,1
4.629067600,1,1
4.629084900,0,1
4.629102200,1,1
4.629119600,0,1
4.629128200,1,1
4.629154200,0,1
4.629180200,1,1
4.629188800,0,1
4.629197500,1,1
4.629206200,0,1
4.629223500,1,1
4.629249400,0,1
4.629284100,1,1
4.629292800,0,1
4.629301400,1,1
4.629344700,0,1
4.629362000,1,1
4.629388000,0,1
4.629405300,1,1
4.629440000,0,1
4.629500600,1,1
4.629535200,0,1
4.629578500,1,1
4.629587200,0,1
4.629595800,1,1
4.629630400,0,1
4.629673700,1,1
4.629699700,0,1
4.629708400,1,1
4.629725700,0,1
4.629751600,1,1
4.629786300,0,1
4.629803600,1,1
4.629820900,0,1
4.629838200,1,1
4.629890200,0,1
4.629898800,1,1
4.629916200,0,1
4.629933500,1,1
4.629942100,0,1
4.629950800,1,1
4.629968100,0,1
4.629985400,1,1
4.630011400,0,1
4.630020100,1,1
4.630054700,0,1
4.630072000,1,1
4.630080700,0,1
4.630089300,1,1
4.630106700,0,1
4.630115300,1,1
4.630150000,0,1
4.630167300,1,1
4.630175900,0,1
4.630184600,1,1
4.630201900,0,1
4.630219200,1,1
4.630236600,0,1
4.630262600,1,1
4.630271200,0,1
4.630279900,1,1
4.630297200,0,1
4.630314500,1,1
4.630331900,0,1
4.630357800,1,1
4.630392500,0,1
4.630418400,1,1
4.630427100,0,1
4.630435800,1,1
4.630461700,0,1
4.630470400,1,1
4.630487700,0,1
4.630513700,1,1
4.630531000,0,1
4.630557000,1,1
4.630583000,0,1
4.630600300,1,1
4.630609000,0,1
4.630626300,1,1
4.630643600,0,1
4.630652200,1,1
4.630678200,0,1
4.630695500,1,1
4.630704200,0,1
4.630712800,1,1
4.630721500,0,1
4.630738800,1,1
4.630747500,0,1
4.630756100,1,1
4.630773400,0,1
4.630834000,1,1
4.630868700,0,1
4.630894600,1,1
4.630903300,0,1
4.630929300,1,1
4.630937900,0,1
4.630946600,1,1
4.630963900,0,1
4.630972600,1,1
4.630981200,0,1
4.630989900,1,1
4.631007200,0,1
4.631033200,1,1
4.631059200,0,1
4.631085100,1,1
4.631119800,0,1
4.631128400,1,1
4.631154400,0,1
4.631180400,1,1
4.631215000,0,1
4.631232300,1,1
4.631249600,0,1
4.631267000,1,1
4.631275600,0,1
4.631284300,1,1
4.631301600,0,1
4.631310200,1,1
4.631344900,0,1
4.631353500,1,1
4.631362200,0,1
4.631370800,1,1
4.631379500,0,1
4.631396800,1,1
4.631405500,0,1
4.631414100,1,1
4.631440100,0,1
4.631483400,1,1
4.631535300,0,1
4.631552600,1,1
4.631630500,0,1
4.631647800,1,1
4.631656500,0,1
4.631699800,1,1
4.631725700,0,1
4.631734400,1,1
4.631743000,0,1
4.631751700,1,1
4.631760400,0,1
4.631786300,1,1
4.631795000,0,1
4.631803600,1,1
4.631821000,0,1
4.631838300,1,1
4.631846900,0,1
4.631855600,1,1
4.631872900,0,1
4.631890200,1,1
4.631916200,0,1
4.631933500,1,1
4.631942100,0,1
4.631950800,1,1
4.631959500,0,1
4.631976800,1,1
4.632011400,0,1
4.632028700,1,1
4.632046000,0,1
4.632089300,1,1
4.632106600,0,1
4.632141200,1,1
4.632149800,0,1
4.632167100,1,1
4.632175800,0,1
4.632184500,1,1
4.632201800,0,1
4.632219100,1,1
4.632236400,0,1
4.632245100,1,1
4.632253700,0,1
4.632262400,1,1
4.632297000,0,1
4.632374900,1,1
4.632392200,0,1
4.632400800,1,1
4.632418100,0,1
4.632470000,1,1
4.632487400,0,1
4.632513300,1,1
4.632522000,0,1
4.632530600,1,1
4.632582600,0,1
4.632599900,1,1
4.632608500,0,1
4.632625800,1,1
4.632651800,0,1
4.632660400,1,1
4.632677800,0,1
4.632686400,1,1
4.632703700,0,1
4.632721000,1,1
4.632738300,0,1
4.632747000,1,1
4.632773000,0,1
4.632798900,1,1
4.632816200,0,1
4.632833500,1,1
4.635570100,1,0
4.635596000,1,1
4.635613300,1,0
4.635630600,1,1
4.635665200,1,0
4.635673900,1,1
4.635682500,1,0
4.635734400,1,1
4.635760400,1,0
4.635769000,1,1
4.635795000,1,0
4.635812300,1,1
4.635820900,1,0
4.635829500,1,1
4.635855500,1,0
4.635907400,1,1
4.635916100,1,0
4.635933300,1,1
4.635950600,1,0
4.635967900,1,1
4.635993900,1,0
4.636011200,1,1
4.636019800,1,0
4.636028500,1,1
4.636045800,1,0
4.636054400,1,1
4.636071700,1,0
4.636080400,1,1
4.636089000,1,0
4.636097700,1,1
4.636106300,1,0
4.636115000,1,1
4.636140900,1,0
4.636149600,1,1
4.636158300,1,0
4.636166900,1,1
4.636175500,1,0
4.636192800,1,1
4.636201500,1,0
4.636218800,1,1
4.636236100,1,0
4.636244800,1,1
4.636253400,1,0
4.636279400,1,1
4.636288000,1,0
4.636296700,1,1
4.636305400,1,0
4.636314000,1,1
4.636331300,1,0
4.636348600,1,1
4.636357300,1,0
4.636374600,1,1
4.636383200,1,0
4.636400500,1,1
4.636426500,1,0
4.636435100,1,1
4.636452400,1,0
4.636469700,1,1
4.636495700,1,0
4.636504300,1,1
4.636521600,1,0
4.636530300,1,1
4.636538900,1,0
4.636547600,1,1
4.636556200,1,0
4.636564900,1,1
4.636590900,1,0
4.636599500,1,1
4.636616800,1,0
4.636625400,1,1
4.636642800,1,0
4.636651400,1,1
4.636660100,1,0
4.636694700,1,1
4.636712000,1,0
4.636729300,1,1
4.636737900,1,0
4.636746600,1,1
4.636772500,1,0
4.636781200,1,1
4.636807100,1,0
4.636815800,1,1
4.636833100,1,0
4.636850400,1,1
4.636859100,1,0
4.636876300,1,1
4.636902300,1,0
4.636919600,1,1
4.636928300,1,0
4.636937000,1,1
4.636962900,1,0
4.636980200,1,1
4.636997600,1,0
4.637006200,1,1
4.637014900,1,0
4.637032200,1,1
4.637066800,1,0
4.637075400,1,1
4.637092700,1,0
4.637110000,1,1
4.637118700,1,0
4.637127300,1,1
4.637136000,1,0
4.637153300,1,1
4.637161900,1,0
4.637170600,1,1
4.637187900,1,0
4.637205200,1,1
4.637239800,1,0
4.637248500,1,1
4.637283100,1,0
4.637291700,1,1
4.637300400,1,0
4.637309000,1,1
4.637326400,1,0
4.637361000,1,1
4.637378300,1,0
4.637404200,1,1
4.637421600,1,0
4.637430200,1,1
4.637473600,1,0
4.637482200,1,1
4.637499500,1,0
4.637508200,1,1
4.637542800,1,0
4.637551400,1,1
4.637568800,1,0
4.637577500,1,1
4.637594800,1,0
4.637612100,1,1
4.637620800,1,0
4.637646700,1,1
4.637664000,1,0
4.637681300,1,1
4.637707300,1,0
4.637724700,1,1
4.637759300,1,0
4.637776600,1,1
4.637802600,1,0
4.637811200,1,1
4.637854500,1,0
4.637889100,1,1
4.637897800,1,0
4.637923700,1,1
4.637949800,1,0
4.637967100,1,1
4.637993100,1,0
4.638001700,1,1
4.638019000,1,0
4.638027700,1,1
4.638045000,1,0
4.638053700,1,1
4.638062400,1,0
4.638105700,1,1
4.638140300,1,0
4.638166300,1,1
4.638200900,1,0
4.638218200,1,1
4.638235500,1,0
4.638261500,1,1
4.638270100,1,0
4.638278800,1,1
4.638330800,1,0
4.638365400,1,1
4.638382700,1,0
4.638408700,1,1
4.638426100,1,0
4.638434700,1,1
4.638443400,1,0
4.638452000,1,1
4.638460700,1,0
4.638503900,1,1
4.638521200,1,0
4.638547200,1,1
4.638555900,1,0
4.638564500,1,1
4.638573200,1,0
4.638590500,1,1
4.638616400,1,0
4.638677000,1,1
4.638711600,1,0
4.638720300,1,1
4.638728900,1,0
4.638737600,1,1
4.638754900,1,0
4.638763600,1,1
4.638780900,1,0
4.638789500,1,1
4.638806800,1,0
4.638815500,1,1
4.638850100,1,0
4.638858800,1,1
4.638902100,1,0
4.638919400,1,1
4.638928000,1,0
4.638945300,1,1
4.638954000,1,0
4.638980000,1,1
4.638997300,1,0
4.639014600,1,1
4.639023200,1,0
4.639031900,1,1
4.639049200,1,0
4.639057900,1,1
4.639092500,1,0
4.639127100,1,1
4.639144400,1,0
4.639170400,1,1
4.639187700,1,0
4.639196300,1,1
4.639213600,1,0
4.639239600,1,1
4.639248200,1,0
4.639256900,1,1
4.639282900,1,0
4.639291500,1,1
4.639308800,1,0
4.639317500,1,1
4.639326100,1,0
4.639360700,1,1
4.639378100,1,0
4.639386700,1,1
4.639421300,1,0
4.639429900,1,1
4.639473200,1,0
4.639481800,1,1
4.639490500,1,0
4.639507800,1,1
4.639542400,1,0
4.639551000,1,1
4.639568300,1,0
4.639585600,1,1
4.639594300,1,0
4.639602900,1,1
4.639611600,1,0
4.639620200,1,1
4.639663500,1,0
4.639672100,1,1
4.639680800,1,0
4.639689400,1,1
4.639706700,1,0
4.639724000,1,1
4.639758600,1,0
4.639767300,1,1
4.639784600,1,0
4.639801800,1,1
4.639819200,1,0
4.639827800,1,1
4.639853800,1,0
4.639862400,1,1
4.639871100,1,0
4.639879700,1,1
4.639888400,1,0
4.639897000,1,1
4.639914400,1,0
4.639931700,1,1
4.639949000,1,0
4.639957700,1,1
4.639992300,1,0
4.640001000,1,1
4.640044300,1,0
4.640061600,1,1
4.640078900,1,0
4.640096200,1,1
4.640113600,1,0
4.640122200,1,1
4.640139500,1,0
4.640148200,1,1
4.640156900,1,0
4.640165500,1,1
4.640191400,1,0
4.640208700,1,1
4.640234700,1,0
4.640243300,1,1
4.640277900,1,0
4.640312500,1,1
4.640329900,1,0
4.640347100,1,1
4.640355800,1,0
4.640373100,1,1
4.640381800,1,0
4.640399100,1,1
4.640425100,1,0
4.640442300,1,1
4.640451000,1,0
4.640459700,1,1
4.640468300,1,0
4.640485600,1,1
4.640520200,1,0
4.640537500,1,1
4.640615400,1,0
4.640624000,1,1
4.640650000,1,0
4.640658600,1,1
4.640684600,1,0
4.640693200,1,1
4.640710500,1,0
4.640727800,1,1
4.640745100,1,0
4.640753800,1,1
4.640771100,1,0
4.640788300,1,1
4.640805700,1,0
4.640814300,1,1
4.640840300,1,0
4.640866200,1,1
4.640900900,1,0
4.640926800,1,1
4.640944100,1,0
4.640961400,1,1
4.642384800,0,1
4.642393400,1,1
4.642402100,0,1
4.642410800,1,1
4.642419400,0,1
4.642428100,1,1
4.642436800,0,1
4.642445400,1,1
4.642454100,0,1
4.642462700,1,1
6.741771500,1,0
6.741788800,1,1
6.741797500,1,0
6.741806100,1,1
6.741814800,1,0
6.741823400,1,1
6.741832100,1,0
6.741840700,1,1
6.741866700,1,0
6.741901300,1,1
6.741910000,1,0
6.741944600,1,1
6.743380200,0,1
6.743406100,1,1
6.743423500,0,1
6.743440800,1,1
6.743475500,0,1
6.743484100,1,1
6.743501400,0,1
6.743510100,1,1
6.743518800,0,1
6.743527400,1,1
6.743536100,0,1
6.743544700,1,1
6.743570700,0,1
6.743596700,1,1
6.743605300,0,1
6.743614000,1,1
6.743622700,0,1
6.743648600,1,1
6.743666000,0,1
6.743674600,1,1
6.743700600,0,1
6.743743900,1,1
6.743761200,0,1
6.743769900,1,1
6.743804500,0,1
6.743830500,1,1
6.743856500,0,1
6.743873800,1,1
6.743891100,0,1
6.743899800,1,1
6.743908500,0,1
6.743917100,1,1
6.743925800,0,1
6.743934400,1,1
6.743951700,0,1
6.743960400,1,1
6.743969100,0,1
6.743977700,1,1
6.744003700,0,1
6.744021000,1,1
6.744047000,0,1
6.744064300,1,1
6.744090300,0,1
6.744107600,1,1
6.744116300,0,1
6.744124900,1,1
6.744142300,0,1
6.744159600,1,1
6.744176900,0,1
6.744185600,1,1
6.744194200,0,1
